#  HZ   S   DB   R     50.00 
! Rohde & Schwarz ZVT8 8Ports - Version 4.11 - 1300.0000k08 SN: 100242
! Date: 2023-12-01 11:25:07
! Measurements: S11 S12 S13 S21 S22 S23 S31 S32 S33 
! 
 5.000000000000000E6    -6.738890039813342E1   1.833633455298734E1  -1.306484195922841E-2  -2.213321648810706  -1.012151855831026E2   5.146995942799843E1  
                        -1.722163523993302E-2  -2.230964763704130  -6.504360461239145E1  -8.562706372387871E1  -6.991379606208925E1   9.987486731084427  
                        -9.325195330605176E1   1.671937758644158E2  -7.036350987943814E1   9.428069269434866  -3.083283269984569E1   1.029298909730361E2  
                        
 5.250000000000000E6    -6.135170585438718E1  -7.143888398728654  -1.744345925735142E-2  -2.314554649143088  -8.789714410255729E1   6.709844379443503E1  
                        -1.630843056862611E-2  -2.312632568247247  -5.615519298244601E1  -7.647466385717083E1  -6.935716111035337E1   8.687216317818885  
                        -9.152425966377260E1   1.463219912297864E2  -6.987391221056642E1   8.192449093645408  -3.136662973500728E1   1.020799415195655E2  
                        
 5.500000000000000E6    -5.887649794964242E1  -5.403869322838490E1  -1.554650414348076E-2  -2.433256699779430  -9.668883319516114E1   8.071092782954879E1  
                        -1.745491865560945E-2  -2.420659894808015  -5.766627077515056E1  -5.911425774285676E1  -6.963653181539608E1   7.317129226366433  
                        -8.742617447133958E1  -1.497043445345212E2  -7.001286456956346E1   6.918297176480483  -3.186451065273722E1   1.009568448296247E2  
                        
 5.750000000000000E6    -6.923687104256287E1  -1.436864798267985E1  -1.469431807002274E-2  -2.519764208925118  -9.677534366047142E1  -1.599774771335179E1  
                        -1.656136603445645E-2  -2.529680941168178  -5.986689913032674E1  -6.679219098800287E1  -6.964630597354537E1   8.457382568955955  
                        -9.099848712756365E1  -4.464081339838160E1  -6.957002614284214E1   7.352092847532498  -3.231622069277245E1   9.959372234135692E1  
                        
 6.000000000000000E6    -6.135322122288589E1  -4.129979926590245E1  -1.771225844877362E-2  -2.634471712887879  -9.097655656647468E1   1.120564588379980E2  
                        -1.746161528379075E-2  -2.641656620786624  -6.039124088153172E1  -3.235293643547084E1  -6.950730957810140E1   9.229555823138945  
                        -9.658908255414544E1   1.182130629089570E2  -6.969253331276627E1   8.673171532089061  -3.273023789524027E1   9.860969178723624E1  
                        
 6.250000000000000E6    -6.155199321501655E1  -8.481041128029574E1  -1.503138881656872E-2  -2.729300562157283  -9.115127470003202E1  -1.615668824587818E2  
                        -1.756787652264723E-2  -2.718166390532488  -6.591400532290919E1  -9.150808446648993E1  -7.043768507986493E1   3.006313094236071  
                        -9.025555557783703E1  -1.776716745840980E2  -6.950224442317206E1   8.898945116184658  -3.310439891313067E1   9.771372386843862E1  
                        
 6.500000000000000E6    -6.667664106372985E1  -8.909002287798472E1  -1.767204489179506E-2  -2.839808997988879  -1.002974491548153E2  -1.253597791640556E2  
                        -1.750497218313720E-2  -2.836675687099374  -5.941808022862880E1  -4.784665778139796E1  -6.950659313098619E1   5.868467836620277  
                        -9.791968335307593E1  -1.376406231054212E2  -6.948416446757223E1   4.164231689728214  -3.348774802119137E1   9.666404814009167E1  
                        
 6.750000000000000E6    -5.745273309970772E1  -3.054767278051060E1  -1.699590390099670E-2  -2.955342218830439  -9.233161306988302E1  -1.420514621206692E2  
                        -1.939190556702936E-2  -2.936283190663874  -5.682263783890057E1  -4.894128068015069E1  -6.960245162218439E1   5.956413781681053  
                        -9.309745912568960E1   1.368608522760581E2  -6.976227044417469E1   2.351324928551244  -3.387656253296579E1   9.612024797769888E1  
                        
 7.000000000000000E6    -6.281543494930428E1  -1.487167774909898E2  -1.692481107243186E-2  -3.041098443093426  -1.115419062941269E2   3.405903093036428E1  
                        -1.806942659335198E-2  -3.031774362603490  -5.867277543131628E1  -8.957656311289748E1  -7.002289733647669E1   2.102705816765122  
                        -9.011550014617995E1   7.495068147236334E1  -6.933971749393341E1   9.900113053574923  -3.416805188713074E1   9.490720724362382E1  
                        
 7.250000000000000E6    -5.998259591779164E1  -5.637150867073193E1  -1.879055900135957E-2  -3.126644220795035  -9.706985506778983E1  -9.232092154082588E1  
                        -1.542060221302507E-2  -3.139835980465706  -6.176785171549056E1  -6.068903122182029E1  -6.993893625072752E1   1.077363460575897E1  
                        -9.309663102045839E1   1.603596170545983E2  -6.983555284624566E1   5.656570212512522  -3.452136277252053E1   9.419597473571419E1  
                        
 7.500000000000000E6    -6.994404550291756E1   9.742908009364607  -2.021876577883211E-2  -3.251771150408930  -9.678367770649408E1   1.719667064952719E-1  
                        -1.834892011897397E-2  -3.234462950289927  -5.617820576638808E1  -6.711941934001060E1  -6.919155510889215E1  -5.583879123884132E-1  
                        -9.453425038454869E1   1.303670438410834E2  -6.936072538263699E1  -1.546156995511920E-1  -3.493121401352966E1   9.322226239906553E1  
                        
 7.750000000000000E6    -5.754220675471755E1  -6.999249122486127E1  -2.266197411496770E-2  -3.340211378924051  -9.573561661234989E1  -1.194577882630314E2  
                        -1.829905502866182E-2  -3.331451580417318  -5.874139940368175E1  -7.744227977243534E1  -6.945447832983916E1   3.856890753040996E-1  
                        -1.009635523995289E2  -1.612045817275643E1  -6.930641892707010E1   6.357693684973437  -3.509027284792477E1   9.264456348824534E1  
                        
 8.000000000000000E6    -5.789470981156472E1  -1.171953213652067E2  -2.146852069151679E-2  -3.456724521178419  -9.186681910250515E1   1.470253895819881E2  
                        -1.692078725293476E-2  -3.419800312820236  -5.337392391899368E1  -5.116469089024052E1  -6.982022671285100E1   4.795864037426055  
                        -9.240173034031430E1  -4.406338728194023E1  -6.972694257245485E1   8.806926530401146  -3.554252516113205E1   9.178651074705046E1  
                        
 8.250000000000000E6    -5.949655765540053E1  -4.383716398243566E1  -2.082485859432358E-2  -3.528260310693156  -8.831333013107901E1  -1.080538026625011E2  
                        -2.014705252200391E-2  -3.548706491652046  -5.938245631702375E1  -5.803598455280285E1  -6.982941083213343E1   4.493135835548845  
                        -9.532536075463233E1   2.894727559086189E1  -6.973053788982834E1   3.442730986219484  -3.578934193313209E1   9.170601672375281E1  
                        
 8.500000000000000E6    -6.101601985254253E1  -5.647303946634219E1  -1.909542676803255E-2  -3.634257718150059  -1.065082098370258E2   1.015075231094327E2  
                        -1.832453372791667E-2  -3.649388152445359  -5.888686789824834E1  -6.594760241076365E1  -7.053761521421318E1   3.143982477193585  
                        -9.225948579725355E1   1.021605281885759E2  -7.080460929147023E1  -1.547356280740045  -3.618177646620092E1   9.067012112800420E1  
                        
 8.750000000000000E6    -5.569439695714249E1  -4.312301204946802E1  -2.126558691480512E-2  -3.743936935542176  -9.249364338977696E1  -1.420221130557393E2  
                        -1.954472826959142E-2  -3.734859940062653  -5.529678293183215E1  -6.889779216531622E1  -7.074078568455937E1   4.263056736402021  
                        -9.482512230562240E1   1.537044489420579E2  -6.931229063178662E1   6.016960631648214  -3.642162250223011E1   8.948194113934602E1  
                        
 9.000000000000000E6    -6.177458560517040E1  -3.841238294431295E1  -1.960208728584261E-2  -3.854317197114618  -8.846532343893043E1  -1.615011907986839E2  
                        -1.604678417635715E-2  -3.842422213380910  -5.584873309523307E1  -6.555674639869645E1  -7.088064124738071E1  -9.279120805633669E-1  
                        -9.717272825071989E1   8.132445893856638E1  -7.007941926138875E1   3.218055014346311  -3.673992080549217E1   8.866557274189555E1  
                        
 9.250000000000000E6    -5.926823609408071E1  -7.036527529001332E1  -2.058978017639872E-2  -3.951479234823167  -8.672279050369468E1   1.456116169791210E2  
                        -1.824092598576628E-2  -3.946213289148765  -5.520579179286110E1  -7.086372363291316E1  -7.008875879553241E1   5.285559811485939  
                        -9.611238570648402E1  -5.718564632211262E1  -6.995875249220890E1  -2.514191103863824  -3.701207148012296E1   8.783562626646793E1  
                        
 9.500000000000000E6    -5.421717918890042E1  -8.285784230928496E1  -1.990465367404938E-2  -4.053148661506278  -8.845195572526643E1  -1.451822459308228E2  
                        -1.518916627288808E-2  -4.045352302058896  -5.819291055359105E1  -7.401668508508767E1  -7.030515681578217E1   1.390922374844547  
                        -1.052413916077075E2   8.408941889077424E1  -6.982874239342371E1   4.030782339923625  -3.725282249814256E1   8.714016613626502E1  
                        
 9.750000000000000E6    -5.573374353757426E1  -7.653135715477131E1  -2.282521607477633E-2  -4.156600879113538  -9.214448404762005E1  -5.996191124727464E1  
                        -1.629913718602261E-2  -4.160705534451527  -5.756074891195441E1  -8.481022071237391E1  -6.943985820665087E1   9.643652956533700  
                        -8.749386769232750E1  -1.505214245699292E2  -7.004145788687139E1   3.754336174503105  -3.752981040277793E1   8.673336837656325E1  
                        
 1.000000000000000E7    -5.354023013567723E1  -5.585061399982573E1  -2.530946157664948E-2  -4.265256581635827  -9.496055562547795E1  -1.188198085175034E2  
                        -1.647807381585848E-2  -4.273398092405101  -5.957836252532371E1  -8.088677745211385E1  -6.910377806165030E1   2.127872426642697  
                        -9.955475878625930E1  -7.543167091427941E1  -6.958909040373219E1   5.225997392250531  -3.788073981418464E1   8.564582316891811E1  
                        
 1.025000000000000E7    -6.005433794562347E1  -2.978478715937798E1  -2.405983910755614E-2  -4.397487370450275  -9.273744908165543E1  -2.148896130334804E1  
                        -1.766233612011029E-2  -4.374718541593397  -5.951938368624544E1  -7.385212784979061E1  -6.950425553882791E1   9.554349680281601E-1  
                        -9.961252864757078E1   6.835101644359996E1  -7.017695629079145E1   2.754058446169394  -3.808981235005319E1   8.513407710338346E1  
                        
 1.050000000000000E7    -5.275459689153269E1  -7.713781212910710E1  -2.196338138857596E-2  -4.457485015289463  -9.894869402971564E1   1.772743104941806E2  
                        -1.969323378805852E-2  -4.467917904552970  -5.349844815493515E1  -7.820730038293978E1  -6.993593746965813E1  -2.421666180232963E-1  
                        -1.099757904576602E2  -4.647466736318426E1  -7.051483825888599E1   1.924186699899090  -3.835875120490060E1   8.448703587762626E1  
                        
 1.075000000000000E7    -5.864796727934412E1  -5.079617324474668E1  -2.090940800626178E-2  -4.581502504169886  -8.533492951532782E1  -1.717587510926940E2  
                        -2.182713683423218E-2  -4.585374221202457  -5.534294218804590E1  -8.026572838114218E1  -6.844936742263303E1  -4.714927009597957  
                        -9.844344995276907E1   6.726872368402566E1  -6.990194718261331E1  -6.978923844062076E-1  -3.865415515833856E1   8.335360281611133E1  
                        
 1.100000000000000E7    -5.744078460578860E1  -6.706434071062037E1  -2.174414814184377E-2  -4.670804091527900  -9.833230826545093E1  -1.016655800297932E2  
                        -2.134080637778945E-2  -4.729528257825518  -5.816165123344518E1  -5.740165689982827E1  -6.989681362783182E1  -2.273073679687069  
                        -9.137590190332287E1   1.664456556583558E2  -7.008795330965003E1   1.316078592377474  -3.880633360080291E1   8.306880871878917E1  
                        
 1.125000000000000E7    -5.495682944872846E1  -4.318575266140860E1  -2.180264850031520E-2  -4.788792296649183  -1.060055017682641E2   2.325529068698460E1  
                        -2.390841898495511E-2  -4.802901149608678  -5.326104081132912E1  -5.833352979566585E1  -6.963491671469600E1  -4.921706630119608  
                        -8.902942939399530E1   1.684035042541477E2  -6.968875596994367E1  -2.013436627298907  -3.904177324959090E1   8.221937410831822E1  
                        
 1.150000000000000E7    -5.326759385779589E1  -4.605268335922736E1  -2.409098026561274E-2  -4.891398677839364  -1.135913389412673E2   1.141728534191840E2  
                        -2.182457784388229E-2  -4.908762328281369  -5.884463569875824E1  -7.427423349963554E1  -6.933437245803636E1   8.763332357439313E-1  
                        -8.563924871836683E1   1.619779016754671E2  -7.046658683775327E1   5.086658824542215  -3.941359920110308E1   8.164875996493875E1  
                        
 1.175000000000000E7    -5.824736106109820E1  -6.116574373174697E1  -2.195275734527610E-2  -5.016060899609163  -1.027407710746985E2   6.161585368466506E1  
                        -2.295599815488697E-2  -5.004596739600233  -5.273922445343354E1  -4.333293144573197E1  -6.933156890480369E1  -3.389531659314816  
                        -8.995231512239074E1   1.732706641551626E2  -7.009315398807009E1  -3.470137633204605E-1  -3.967197926462029E1   8.135367743209358E1  
                        
 1.200000000000000E7    -5.326958108231319E1  -7.091112478614285E1  -2.440492728375613E-2  -5.078856730420990  -9.155880761154525E1   8.208354444848244E1  
                        -2.063227849970957E-2  -5.131699846963209  -5.785664049344182E1  -8.120036277337781E1  -7.004910235070149E1  -2.339264699107121  
                        -9.717684888987724E1   1.046712791794733E1  -7.004584394045817E1   6.144352051654639E-1  -3.995219162551869E1   8.082257091232802E1  
                        
 1.225000000000000E7    -5.384188737800003E1  -6.934914118998829E1  -2.304675685390480E-2  -5.210594824159960  -9.272416675670922E1   1.685861947257199E2  
                        -2.532675019467472E-2  -5.211819508869455  -5.691349268781786E1  -6.566446174813015E1  -6.869019858506395E1   5.575891231196515E-1  
                        -8.815911210010212E1  -1.050634047748775E2  -6.990755678419043E1   2.957876218829213  -4.022391641447967E1   7.975262616291757E1  
                        
 1.250000000000000E7    -5.458852918541896E1  -5.277921040706109E1  -2.755026793200640E-2  -5.311970617950261  -7.906968096333416E1   1.546430450952269E2  
                        -2.382140798694473E-2  -5.320374205560102  -5.948324890107843E1  -7.275560028559821E1  -6.997810127930019E1  -1.808651539689894  
                        -9.568582406581892E1   5.312358377987060E1  -7.053830927437045E1   1.058789362087910E-1  -4.013455423790735E1   7.886474324113051E1  
                        
 1.275000000000000E7    -5.615950479180363E1  -9.227130209545317E1  -2.601315415045753E-2  -5.410882175126645  -1.009241354031058E2  -3.469129829099800E1  
                        -2.629422439959417E-2  -5.422789251378324  -5.384361127489692E1  -6.814486366637465E1  -7.037618188547239E1  -5.843411962936655E-1  
                        -9.821527558971704E1  -1.313200132190584E2  -7.066487959043641E1  -1.838781718458122  -4.046207280165019E1   7.803354093972321E1  
                        
 1.300000000000000E7    -5.429026172113884E1  -6.008237586781713E1  -2.976257105113583E-2  -5.523645625871526  -9.478368465524515E1   1.667065031943344E2  
                        -2.637141782642042E-2  -5.517404698908703  -5.532253286624732E1  -4.457187458349830E1  -6.919190783339359E1  -2.164053368802865E-1  
                        -9.611453423123385E1  -1.051633501021876E2  -6.994752611658612E1  -1.753779305909883  -4.076515876018387E1   7.637106103703307E1  
                        
 1.325000000000000E7    -5.568225896302525E1  -5.395287810836167E1  -2.384469770251337E-2  -5.613898730704329  -9.512883243602173E1  -1.228946288399936E2  
                        -2.514979091855565E-2  -5.630061653693110  -5.254921235659722E1  -6.314245993068280E1  -6.963239211172086E1  -3.176757619708152  
                        -9.125072042195416E1  -1.167232462749844E2  -7.022421487884002E1  -4.031784011850084  -4.100824793872914E1   7.720728337166516E1  
                        
 1.350000000000000E7    -5.373285497898038E1  -6.097710677015731E1  -2.780910685135584E-2  -5.731704660716248  -8.984916429928872E1  -8.846142589283883E1  
                        -2.543963893274453E-2  -5.730055595220331  -5.276827001336670E1  -4.868527361503474E1  -7.003535690526093E1  -4.171922153753870  
                        -8.933176213677641E1  -6.980756076663272E1  -7.014661544067324E1  -3.760918795598619  -4.124369261916771E1   7.657627188465463E1  
                        
 1.375000000000000E7    -5.159361108254550E1  -5.907337433929827E1  -2.847774547098845E-2  -5.820936235053612  -9.497418079152739E1  -7.828101627437269E1  
                        -2.741864682406194E-2  -5.829058369138267  -5.147676064135165E1  -5.802141490967779E1  -6.919567319422565E1   2.639560021613878  
                        -1.007731698199885E2   8.747902227689555E1  -7.014935259558814E1  -1.136132757767133  -4.160372122903282E1   7.646812708957181E1  
                        
 1.400000000000000E7    -5.143889925727374E1  -4.537975600222354E1  -2.928319667532086E-2  -5.926856074030985  -9.041133315597496E1  -8.898008703900057E1  
                        -2.524570061959000E-2  -5.940295123525258  -5.188857156367639E1  -6.924682866223995E1  -7.065286245276624E1  -2.878864870408562E-1  
                        -1.101234808530189E2  -1.397935415072037E1  -7.002339670932624E1   2.997284530070228  -4.157982221116640E1   7.403124944123299E1  
                        
 1.425000000000000E7    -5.131083707226313E1  -5.301492528699956E1  -3.321336271008614E-2  -6.048985991443115  -9.489226081001851E1  -1.574288884544990E2  
                        -2.525152662611764E-2  -6.062480971126368  -5.232753913867764E1  -5.150342778131650E1  -7.034414609645393E1  -1.434976109733294  
                        -8.293304928068483E1  -1.309206352426172E2  -6.970787986599845E1   2.450696137847702  -4.176384064175319E1   7.476361178332446E1  
                        
 1.450000000000000E7    -5.141984637293325E1  -4.046326977029765E1  -3.038339270979769E-2  -6.157928527660419  -8.754756418590723E1  -1.137143455563572E2  
                        -2.566657356752689E-2  -6.147222940261389  -5.283659252534548E1  -3.607266377678912E1  -7.029614436582882E1   4.079833902276631  
                        -8.834989442922097E1   1.499590379918419E2  -7.032537010468384E1  -2.575108851668395  -4.208109133646429E1   7.472755514778005E1  
                        
 1.475000000000000E7    -5.203863452725177E1  -5.791802224167670E1  -2.700813998495049E-2  -6.252988032664522  -9.115533033348477E1  -1.071328718862947E2  
                        -2.620695640100638E-2  -6.252850062120245  -5.264942238316279E1  -6.620897663972309E1  -6.951917950486389E1  -2.162810121173146  
                        -9.474102430808519E1  -1.147264026170216E2  -6.953852788924769E1  -9.788544600107962E-1  -4.253570747824566E1   7.214627121619485E1  
                        
