#  HZ   S   DB   R     50.00 
! Rohde & Schwarz ZVT8 8Ports - Version 4.11 - 1300.0000k08 SN: 100242
! Date: 2023-12-01 11:38:56
! Measurements: S11 S21 S12 S22 
! 
 5.000000000000000E6    -4.270946339188025E1   1.910687121984930E1  -6.707166498461249E-2  -1.602302219660124E1  -6.404902161769231E-2  -1.599674407690481E1  -4.400266814618796E1   1.703674278132891E1  
 5.250000000000000E6    -4.236595663138849E1   1.434856536870235E1  -6.837272386864746E-2  -1.679287311552627E1  -7.000998992402960E-2  -1.678170912657802E1  -4.394015790689064E1   6.758967940792901  
 5.500000000000000E6    -4.300636611206535E1   8.918485130450382  -6.962067697741056E-2  -1.757683974251968E1  -6.997997418943397E-2  -1.757795347732606E1  -4.329758005074149E1   6.486393573623373  
 5.750000000000000E6    -4.244785163916395E1   1.414493765350911E1  -7.008968720171632E-2  -1.836321180495465E1  -7.057264206045777E-2  -1.834656885530472E1  -4.331336223382598E1   7.640013941499801  
 6.000000000000000E6    -4.240594854351127E1   8.442469511736142  -7.271848685810420E-2  -1.916465423330565E1  -7.564808467841654E-2  -1.914385927196541E1  -4.255993423444868E1   7.571057430094745  
 6.250000000000000E6    -4.291269378307634E1   8.544930523037040  -7.419610785841894E-2  -1.991747937758506E1  -7.219628624512835E-2  -1.992147407242340E1  -4.316653104409486E1   9.987627927508218  
 6.500000000000000E6    -4.256192780487828E1   9.210934001486359  -7.566164713577271E-2  -2.071495118319477E1  -7.718033982888092E-2  -2.071501203836345E1  -4.257826891175036E1   2.685169278987889  
 6.750000000000000E6    -4.166558522076247E1   7.666544698520962E-1  -7.873918382476229E-2  -2.149047384206252E1  -7.833740113117289E-2  -2.150900275049632E1  -4.256041668407787E1  -1.841379563599657  
 7.000000000000000E6    -4.262687715858781E1   9.714070695823228  -7.813545494760696E-2  -2.227321838929735E1  -7.882690089889972E-2  -2.227722056734976E1  -4.318734442434347E1   1.536223320565477  
 7.250000000000000E6    -4.184804863789042E1   3.716251903427917E-1  -7.646491365863879E-2  -2.305829212031582E1  -8.281976253476073E-2  -2.304283855344695E1  -4.253400105387821E1   7.493663529496267E-1  
 7.500000000000000E6    -4.130713609291107E1   4.336589102324959  -8.018824253427104E-2  -2.383711290657898E1  -8.462513020512920E-2  -2.384609661712553E1  -4.288311367565447E1  -5.993815746647771  
 7.750000000000000E6    -4.201237757338047E1  -4.129300296758428  -8.105067539898918E-2  -2.460994947994151E1  -8.758602857107201E-2  -2.461079588412873E1  -4.298831744193360E1  -3.318680080498504  
 8.000000000000000E6    -4.266136381255225E1  -1.963672920633086E-1  -8.117949879408168E-2  -2.537878558754087E1  -8.862279506024483E-2  -2.540814910892929E1  -4.197214581808018E1  -1.149733627635464E1  
 8.250000000000000E6    -4.116052533906338E1  -5.429305225476306  -8.575044534035203E-2  -2.619288042992111E1  -8.926895848430241E-2  -2.616628880428678E1  -4.221567305596514E1  -6.356715472657377  
 8.500000000000000E6    -4.133785204857940E1  -6.229177241500898  -8.437199652139056E-2  -2.696821546065974E1  -8.856847828095243E-2  -2.694729634759622E1  -4.224415961356262E1  -7.491411497438786  
 8.750000000000000E6    -4.095992018426808E1  -1.170077960611568E1  -8.788323370942743E-2  -2.772700722233482E1  -9.244241863040062E-2  -2.774159928989507E1  -4.229607497584654E1  -1.234700454330620E1  
 9.000000000000000E6    -4.082066627966713E1  -7.438988448766557  -8.544470220613561E-2  -2.852084624909898E1  -9.225576599566415E-2  -2.852246758064483E1  -4.215327360817231E1  -1.244342435924304E1  
 9.250000000000000E6    -4.131422284977239E1  -1.085183936400997E1  -8.809694979642108E-2  -2.929648339213578E1  -9.258922915294671E-2  -2.929904419542099E1  -4.242555063730939E1  -1.502340636883462E1  
 9.500000000000000E6    -4.161617248215054E1  -1.609092370826590E1  -8.698607083805256E-2  -3.008128518065709E1  -9.412561396313529E-2  -3.008044310513773E1  -4.217955245177471E1  -1.166662711667298E1  
 9.750000000000000E6    -4.154358183057136E1  -1.533055672969599E1  -8.927802933760888E-2  -3.087666614041105E1  -9.836003050705298E-2  -3.085944294609357E1  -4.225435598259114E1  -1.158393546910609E1  
 1.000000000000000E7    -4.082701192790803E1  -2.009117045241281E1  -8.918859836658348E-2  -3.167167982706881E1  -1.004744797527058E-1  -3.164507199624454E1  -4.182834380116561E1  -1.108820039417333E1  
 1.025000000000000E7    -4.018522595350289E1  -1.351782015936294E1  -9.144071370813342E-2  -3.245143445349352E1  -1.012998617112371E-1  -3.246676019242960E1  -4.178693747301114E1  -1.336813936705123E1  
 1.050000000000000E7    -4.143290964328021E1  -2.082661630227130E1  -9.293594558513472E-2  -3.321556486155937E1  -1.003681925241938E-1  -3.320118686828277E1  -4.244570369514980E1  -1.972475126635592E1  
 1.075000000000000E7    -4.051500027543519E1  -1.760180994688356E1  -9.727715169336997E-2  -3.401738769102477E1  -1.009330230859981E-1  -3.400098971369925E1  -4.200614133960473E1  -1.804945950537666E1  
 1.100000000000000E7    -4.071619819990669E1  -1.867425129366721E1  -9.758519600446726E-2  -3.483488390149405E1  -9.899695779835967E-2  -3.477352385187414E1  -4.123826426100384E1  -1.626971782871284E1  
 1.125000000000000E7    -4.016424697750706E1  -2.267897337006941E1  -1.006010452389125E-1  -3.558487635327864E1  -1.011490740644397E-1  -3.557396216626136E1  -4.137613144709710E1  -2.403614309303887E1  
 1.150000000000000E7    -3.990926719785146E1  -2.476910305870705E1  -9.952670166986227E-2  -3.638517016937747E1  -1.053991054018685E-1  -3.634681274105547E1  -4.138722253057271E1  -1.709598727647261E1  
 1.175000000000000E7    -4.025740297665321E1  -2.053258438596662E1  -1.017144746626173E-1  -3.714907075856400E1  -1.031553851607612E-1  -3.715654180984677E1  -4.062227200822193E1  -2.633410293469888E1  
 1.200000000000000E7    -4.063428862659355E1  -2.702124981474740E1  -1.003260357416218E-1  -3.795488231484628E1  -1.055343245273012E-1  -3.789337485629467E1  -4.150633513469803E1  -2.022554021214508E1  
 1.225000000000000E7    -4.042181380679145E1  -2.685029528416186E1  -1.047998024119240E-1  -3.871450089564459E1  -1.066114836325727E-1  -3.869883582995400E1  -4.089524538186184E1  -2.236662258601167E1  
 1.250000000000000E7    -3.990620478852996E1  -2.722937805483137E1  -1.046755677959027E-1  -3.950899786083316E1  -1.132119672734362E-1  -3.948475982562171E1  -4.114040046486861E1  -1.968396688902800E1  
 1.275000000000000E7    -4.056638358091491E1  -2.445235183474736E1  -1.083755362060898E-1  -4.028187158062789E1  -1.098787182595593E-1  -4.026190756945282E1  -4.101605519463966E1  -2.690085979002481E1  
 1.300000000000000E7    -3.983047678017181E1  -2.834303454463506E1  -1.081813546960550E-1  -4.106156291268626E1  -1.141876687997833E-1  -4.104840574004733E1  -4.033810666999127E1  -2.581768498792735E1  
 1.325000000000000E7    -3.978393578831678E1  -2.825780679933135E1  -1.078956557154405E-1  -4.184731814114780E1  -1.114174400979336E-1  -4.182551677106780E1  -4.088968547145021E1  -3.202680397041659E1  
 1.350000000000000E7    -3.979696832235923E1  -3.260992588043386E1  -1.089459996514789E-1  -4.262300631413515E1  -1.145209802722471E-1  -4.262277970615367E1  -4.041555073550970E1  -3.070095229929712E1  
 1.375000000000000E7    -3.989394748199761E1  -3.492166068342439E1  -1.117762250924151E-1  -4.339860984770503E1  -1.162441823014900E-1  -4.338421699347890E1  -4.079656426030674E1  -3.421477432670366E1  
 1.400000000000000E7    -3.916080877581948E1  -3.517695852108552E1  -1.100922357002893E-1  -4.419472239298281E1  -1.187804945530906E-1  -4.416649261506659E1  -4.099632159936638E1  -3.372449932353666E1  
 1.425000000000000E7    -3.933851192601004E1  -3.799631556420490E1  -1.115338840135227E-1  -4.498545826264255E1  -1.237174551556160E-1  -4.496446296531627E1  -4.039033367167480E1  -3.534255157662489E1  
 1.450000000000000E7    -3.885824972811849E1  -3.805762145576540E1  -1.126988621496019E-1  -4.574489509301552E1  -1.201076012671555E-1  -4.574962983953989E1  -3.985768686207110E1  -3.489402148066024E1  
 1.475000000000000E7    -3.940837058235517E1  -3.750681518684637E1  -1.137215986072719E-1  -4.654030242094130E1  -1.175840418522598E-1  -4.652452067420384E1  -4.067211292554197E1  -3.533596484780153E1  
 1.500000000000000E7    -3.889154493370605E1  -3.792868675649156E1  -1.129784692241934E-1  -4.731919188469452E1  -1.194062139585681E-1  -4.732495266702436E1  -4.022355379027445E1  -3.707076364924967E1  
 1.525000000000000E7    -3.933367482381994E1  -4.101461922637606E1  -1.131654071378666E-1  -4.807984610125769E1  -1.180477596423872E-1  -4.807485766004106E1  -3.991964528145216E1  -4.109239865833329E1  
 1.550000000000000E7    -3.919447330998862E1  -3.619480486386816E1  -1.118234124366131E-1  -4.886135169255119E1  -1.164192737804992E-1  -4.886853503439917E1  -4.034078797718936E1  -3.993753818721168E1  
 1.575000000000000E7    -3.945237662575111E1  -3.668202063590044E1  -1.147050224000595E-1  -4.965779061874327E1  -1.190795423477243E-1  -4.964411756380856E1  -4.047066172926313E1  -3.831463080221847E1  
 1.600000000000000E7    -3.905322486544169E1  -4.367486757404607E1  -1.158700241380159E-1  -5.043688254353576E1  -1.169089320801060E-1  -5.045746968315350E1  -3.973654732718885E1  -4.123887545599862E1  
 1.625000000000000E7    -3.881474786343176E1  -4.296675293006501E1  -1.137047735155581E-1  -5.122896230272630E1  -1.218589490990517E-1  -5.121234191856892E1  -3.990231203736222E1  -4.202934336661730E1  
 1.650000000000000E7    -3.896611410206707E1  -4.704933668653796E1  -1.129864818579115E-1  -5.200343514136657E1  -1.172898277226094E-1  -5.199723404617349E1  -4.022250952914966E1  -4.226632973969409E1  
 1.675000000000000E7    -3.906336833732705E1  -4.828952815708856E1  -1.149520515771527E-1  -5.279254392289581E1  -1.163171301864849E-1  -5.277290601844814E1  -4.019215028704600E1  -4.620680291171547E1  
 1.700000000000000E7    -3.888245456870728E1  -4.641416557819385E1  -1.118822973123728E-1  -5.357235866692895E1  -1.171244916010191E-1  -5.355802343551827E1  -4.083217898415860E1  -4.250353362622246E1  
 1.725000000000000E7    -3.919544275770689E1  -4.900878322027004E1  -1.157213682949305E-1  -5.435954436811262E1  -1.177333003264926E-1  -5.433924406346721E1  -4.024437428759319E1  -4.446234738007316E1  
 1.750000000000000E7    -3.896916416245094E1  -4.835337836299639E1  -1.149249568386331E-1  -5.515094538120529E1  -1.150401848803092E-1  -5.512141556129676E1  -4.005142699841301E1  -4.587082501644155E1  
 1.775000000000000E7    -3.929694035656038E1  -4.963937355682384E1  -1.174237958527299E-1  -5.593419158676734E1  -1.171784886315409E-1  -5.588481549856766E1  -4.095576686774096E1  -4.519648526534393E1  
 1.800000000000000E7    -3.910562969222533E1  -4.772236714978712E1  -1.142856943553750E-1  -5.668120343788109E1  -1.192536366194759E-1  -5.668832322812985E1  -3.983933406274968E1  -4.566142106116266E1  
 1.825000000000000E7    -3.952021433056576E1  -5.026311826129688E1  -1.186521604655038E-1  -5.750466401287655E1  -1.189653160532610E-1  -5.747345525991504E1  -4.033610787506720E1  -5.216172346698328E1  
 1.850000000000000E7    -3.894879067052579E1  -5.064826828538256E1  -1.207357690907932E-1  -5.825894584737243E1  -1.175894020066181E-1  -5.827349091949537E1  -4.069486129101152E1  -5.086404361992886E1  
 1.875000000000000E7    -3.892634416797157E1  -5.093441908934964E1  -1.171927825361391E-1  -5.903498198362156E1  -1.185682111204543E-1  -5.905213356272491E1  -4.074981248765515E1  -5.314617641888230E1  
 1.900000000000000E7    -3.946668607587842E1  -5.751340609336267E1  -1.178893152062457E-1  -5.981688921357778E1  -1.198401201513968E-1  -5.981713672894303E1  -4.004741879390357E1  -5.356981200826993E1  
 1.925000000000000E7    -3.996066176099394E1  -5.413475414914465E1  -1.208415767934886E-1  -6.062456425760766E1  -1.185789227897083E-1  -6.059749952486365E1  -4.063922821720752E1  -5.113674463516757E1  
 1.950000000000000E7    -3.922043836620068E1  -5.530215869603557E1  -1.189619899986247E-1  -6.138395052600477E1  -1.260679125793519E-1  -6.136529823780953E1  -4.027068792480666E1  -6.131353861113718E1  
 1.975000000000000E7    -3.935613884590017E1  -5.541235055565218E1  -1.203835794753331E-1  -6.216821535340088E1  -1.265046200081153E-1  -6.215103720222209E1  -4.055729947411908E1  -5.494151528339888E1  
 2.000000000000000E7    -3.972632018804558E1  -5.647054732060141E1  -1.220192095613591E-1  -6.295359050448737E1  -1.265035832760533E-1  -6.293951049255839E1  -4.071322632390855E1  -5.818759427639759E1  
 2.025000000000000E7    -3.870482066788686E1  -5.862171724261816E1  -1.200219765980013E-1  -6.375804763481216E1  -1.241019252692081E-1  -6.373261776866512E1  -4.113942883642440E1  -5.811130433247077E1  
 2.050000000000000E7    -3.912069431562922E1  -6.068926996435902E1  -1.205779834960575E-1  -6.451944379850944E1  -1.248539293774319E-1  -6.450913952620599E1  -4.049506800917335E1  -5.439295472895091E1  
 2.075000000000000E7    -3.922462902211319E1  -5.827398721543381E1  -1.197745152305434E-1  -6.529717580972495E1  -1.227233241543099E-1  -6.529455526928118E1  -4.098254609001540E1  -6.035584698249247E1  
 2.100000000000000E7    -3.908569231025295E1  -6.045690535666947E1  -1.193490763751964E-1  -6.610805279061013E1  -1.271494732089950E-1  -6.607770159295251E1  -4.001379945285238E1  -6.264006944786716E1  
 2.125000000000000E7    -3.973455971708198E1  -6.261231252808673E1  -1.217220593850326E-1  -6.688348001461198E1  -1.238505176393141E-1  -6.686956968849391E1  -4.151338681035436E1  -6.232050746232458E1  
 2.150000000000000E7    -3.940609709709005E1  -6.294861505987187E1  -1.196833048747752E-1  -6.766604735000006E1  -1.220907642886257E-1  -6.764591215720272E1  -4.037679742109286E1  -6.282301978216277E1  
 2.175000000000000E7    -3.893094312201761E1  -6.225849229142956E1  -1.216416316649145E-1  -6.843914875343718E1  -1.266189959069138E-1  -6.842214839244421E1  -4.045434313343177E1  -6.057743175016887E1  
 2.200000000000000E7    -3.891971866851265E1  -6.925657163971479E1  -1.225124044051952E-1  -6.923070471395758E1  -1.241194682375139E-1  -6.920795895294361E1  -4.163844141960343E1  -6.108972926344173E1  
 2.225000000000000E7    -3.940667670543763E1  -6.492688170586995E1  -1.225801945154093E-1  -7.000346323708735E1  -1.237406903204897E-1  -7.000865816207310E1  -4.034895654722628E1  -6.464885679333840E1  
 2.250000000000000E7    -3.908444743358846E1  -6.406071288656510E1  -1.228013433853740E-1  -7.081005665009921E1  -1.247590943147457E-1  -7.076897022863491E1  -4.050606169264962E1  -6.290406247117944E1  
 2.275000000000000E7    -3.922058623716573E1  -6.586277373023859E1  -1.218523586779459E-1  -7.155908450109868E1  -1.279993270282517E-1  -7.157723299694071E1  -4.148439606524848E1  -6.444786140941648E1  
 2.300000000000000E7    -3.957417686131844E1  -6.753765315939329E1  -1.203272933735290E-1  -7.236725949879742E1  -1.254322720508067E-1  -7.232880213195149E1  -4.105324389952344E1  -6.796273817195241E1  
 2.325000000000000E7    -3.874052811805203E1  -6.904316489970590E1  -1.239293980099953E-1  -7.313675944438617E1  -1.294018789020693E-1  -7.312276512135055E1  -4.173971174394889E1  -6.543383698862932E1  
 2.350000000000000E7    -3.880896804401017E1  -6.842861774916337E1  -1.249606352490678E-1  -7.394640674357588E1  -1.243086273535537E-1  -7.391556733304378E1  -4.142586223888471E1  -6.549380883090080E1  
 2.375000000000000E7    -3.956379816237464E1  -6.924573245775352E1  -1.285980610292897E-1  -7.472136757958121E1  -1.280330395485154E-1  -7.471077889644525E1  -4.191498089818191E1  -6.056088842602819E1  
 2.400000000000000E7    -3.984128386350327E1  -6.849485725042707E1  -1.235968692445942E-1  -7.550609371873991E1  -1.300849945500052E-1  -7.548478364187959E1  -4.089381135314725E1  -6.954166342596456E1  
 2.425000000000000E7    -3.903800087460347E1  -6.809752918562754E1  -1.238683826687932E-1  -7.627833448075297E1  -1.279925571228605E-1  -7.626002873596630E1  -4.107537885804673E1  -6.839260744867192E1  
 2.450000000000000E7    -3.952319761545578E1  -7.062476186522081E1  -1.255366261029322E-1  -7.707373881085080E1  -1.280617749023831E-1  -7.703768793570420E1  -4.180269655576385E1  -6.595483500777338E1  
 2.475000000000000E7    -3.914231021309738E1  -7.161504763099725E1  -1.283608640682358E-1  -7.785990024390684E1  -1.287476238045844E-1  -7.781586812836237E1  -4.192513299323015E1  -6.806827203214091E1  
 2.500000000000000E7    -3.974548895919004E1  -6.957929693172180E1  -1.244850841615948E-1  -7.863508927868300E1  -1.301685139635020E-1  -7.860379923510153E1  -4.183811852508379E1  -7.466806269599327E1  
 2.525000000000000E7    -3.997243468815355E1  -7.118923666517065E1  -1.286868324729690E-1  -7.942929286044634E1  -1.326711452619439E-1  -7.940122758925861E1  -4.167569810794885E1  -6.972965798797586E1  
 2.550000000000000E7    -3.976708831896675E1  -7.502224552774554E1  -1.303747841883383E-1  -8.021233617012204E1  -1.281891543458338E-1  -8.019744922604721E1  -4.150835862415188E1  -6.933016527186905E1  
 2.575000000000000E7    -3.991392752689750E1  -7.180438769541301E1  -1.314804675249520E-1  -8.099671249911880E1  -1.307108483634855E-1  -8.096927773594371E1  -4.181029595660052E1  -7.029478729387382E1  
 2.600000000000000E7    -3.968507957540406E1  -7.315596172113827E1  -1.283941284430854E-1  -8.177195759935171E1  -1.324504623145454E-1  -8.176546151544984E1  -4.157383284561885E1  -6.986133295054266E1  
 2.625000000000000E7    -3.948757801149503E1  -7.758448540206854E1  -1.278680827772701E-1  -8.256258315511501E1  -1.325627537090019E-1  -8.253287719427861E1  -4.188255954855625E1  -7.336148336468025E1  
 2.650000000000000E7    -4.012401493491086E1  -7.579774467931456E1  -1.308948767041575E-1  -8.333940059197870E1  -1.321161636990882E-1  -8.332112530651429E1  -4.141019605108334E1  -7.014527759658596E1  
 2.675000000000000E7    -3.960632210456600E1  -7.324768206249615E1  -1.304746497399613E-1  -8.411829674699833E1  -1.332464578766879E-1  -8.409989737888967E1  -4.261756396813079E1  -7.152614861704151E1  
 2.700000000000000E7    -4.027004492633134E1  -7.605746705445074E1  -1.330674460834370E-1  -8.490279060653460E1  -1.307085289902003E-1  -8.488413528554987E1  -4.312453832931093E1  -7.624322233012840E1  
 2.725000000000000E7    -3.952333791223131E1  -7.738925232100813E1  -1.309841211444834E-1  -8.566338899908010E1  -1.325175257269110E-1  -8.566104654676289E1  -4.174537084681806E1  -7.314102306469248E1  
 2.750000000000000E7    -3.992837896531594E1  -7.740590475274776E1  -1.307851739056297E-1  -8.645204451092431E1  -1.332821402608888E-1  -8.645149239676461E1  -4.193468119149885E1  -7.015903346452922E1  
 2.775000000000000E7    -3.999174885155617E1  -7.952163626699361E1  -1.318168417170995E-1  -8.725218553209346E1  -1.355250985880651E-1  -8.722727599344252E1  -4.202863356069448E1  -7.219202112507044E1  
 2.800000000000000E7    -3.920913169899565E1  -8.048775286121466E1  -1.343143361358034E-1  -8.804111396175939E1  -1.329578162106831E-1  -8.800535753278147E1  -4.238794759454790E1  -7.427295204004250E1  
 2.825000000000000E7    -3.970010842561367E1  -8.251262652265308E1  -1.313469060148633E-1  -8.881845260759663E1  -1.349455066438332E-1  -8.880584992134502E1  -4.228132575573370E1  -7.185652980269040E1  
 2.850000000000000E7    -3.970958202824887E1  -8.121629881054736E1  -1.329799159843821E-1  -8.960477103843044E1  -1.359382009697387E-1  -8.959101150024223E1  -4.221382670088703E1  -7.179756780161462E1  
 2.875000000000000E7    -3.922204622841628E1  -8.112137989854196E1  -1.325798659800432E-1  -9.037826329166948E1  -1.369107362218008E-1  -9.035921448368796E1  -4.212505306656466E1  -7.406357061349351E1  
 2.900000000000000E7    -3.981229279029599E1  -8.172903539762338E1  -1.305582513585839E-1  -9.117669736063013E1  -1.390714463500294E-1  -9.113542067434470E1  -4.243612600396843E1  -7.618431953852053E1  
