#  HZ   S   DB   R     50.00 
! Rohde & Schwarz ZVT8 8Ports - Version 4.11 - 1300.0000k08 SN: 100242
! Date: 2024-03-13 12:49:16
! Measurements: S11 S21 S12 S22 
! 
 1.000000000000000E6    -2.638890390952222E1  -1.293299807486427E2  -1.179412931569703E-1  -4.652566748035401   3.232857605581472E-2  -5.037962519837529  -2.331032319311992E1  -1.462046453741527E2  
 1.295000000000000E6    -2.146354565145001E1  -1.527061148649785E2  -1.034630263275902E-1  -6.103087605975953   1.561886203845962E-2  -6.366565634500720  -2.254837097129629E1  -1.591008268482160E2  
 1.590000000000000E6    -2.087354711926356E1  -1.602418955519743E2  -1.059731418678706E-1  -7.442986825692379   9.373478173070379E-3  -7.684732671185268  -2.175883958265884E1  -1.684932876054306E2  
 1.885000000000000E6    -2.020884563124323E1  -1.656311655663070E2  -1.213126541275254E-1  -8.738820301542326   4.171011465006979E-3  -9.038906581775015  -2.094977018548661E1  -1.753243653094959E2  
 2.180000000000000E6    -1.971870230415486E1  -1.706157674946595E2  -1.280398857820383E-1  -1.006086672332166E1   5.664605528254345E-4  -1.039877454745635E1  -2.053957586915579E1   1.772822911359750E2  
 2.475000000000000E6    -1.962870819207291E1  -1.756539335270775E2  -1.301862775293233E-1  -1.136605262727179E1  -4.220090790065131E-3  -1.166122779816457E1  -2.037138753445126E1   1.699812049959494E2  
 2.770000000000000E6    -1.952740336446412E1  -1.797725242816352E2  -1.408274835603889E-1  -1.265784446289212E1  -1.662367407381863E-2  -1.299466750738143E1  -2.017783317115415E1   1.639173887313876E2  
 3.065000000000000E6    -1.948335728313469E1   1.769717430424050E2  -1.444394364979301E-1  -1.399119658228490E1  -2.665025965908264E-2  -1.432595835633360E1  -2.007364918399094E1   1.588223315714829E2  
 3.360000000000000E6    -1.947294016060908E1   1.733146444186192E2  -1.439181458502466E-1  -1.527837823374215E1  -2.674755115415951E-2  -1.554611406889609E1  -2.009004118227772E1   1.530781915305899E2  
 3.655000000000000E6    -1.953706519407669E1   1.703637526928743E2  -1.511837821474929E-1  -1.662646055129141E1  -3.388708668304416E-2  -1.688349733120954E1  -2.013135218495522E1   1.480727220717982E2  
 3.950000000000000E6    -1.959374575886773E1   1.679256134739944E2  -1.602333988197802E-1  -1.786740575734115E1  -5.147229061949098E-2  -1.817553557476646E1  -2.017731256757839E1   1.439393978910325E2  
 4.245000000000000E6    -1.967421195240735E1   1.652067549588756E2  -1.620205527741015E-1  -1.920958976988806E1  -4.542443370858550E-2  -1.944292267858204E1  -2.023397480933774E1   1.395327643032540E2  
 4.540000000000000E6    -1.973780688803376E1   1.632312395666315E2  -1.568844202708690E-1  -2.047740870511489E1  -5.044061167881578E-2  -2.071073341280389E1  -2.031828487570320E1   1.355818449125416E2  
 4.835000000000000E6    -1.983067858131252E1   1.611620466840789E2  -1.592624474037908E-1  -2.176482363745504E1  -5.909132704108689E-2  -2.203324233574652E1  -2.038457188682250E1   1.317749584977520E2  
 5.130000000000000E6    -1.996637997283275E1   1.591137354274690E2  -1.609191256371559E-1  -2.306465877573227E1  -6.784272321083422E-2  -2.334719174818791E1  -2.046203374232421E1   1.281378696929118E2  
 5.425000000000000E6    -2.004355425610932E1   1.572886223238545E2  -1.580505528300784E-1  -2.440282887118388E1  -6.538936291916596E-2  -2.462552721657786E1  -2.051285497242312E1   1.245008989249657E2  
 5.720000000000000E6    -2.013709334735982E1   1.557640911773010E2  -1.643439598734079E-1  -2.567022931518105E1  -6.922032466431360E-2  -2.592064123796789E1  -2.061299789803114E1   1.211816034359707E2  
 6.015000000000000E6    -2.030192353583481E1   1.544195612872321E2  -1.769668449541272E-1  -2.689304976659312E1  -8.420475364884465E-2  -2.720170433651184E1  -2.069177747326159E1   1.178272242752590E2  
 6.310000000000000E6    -2.044241615886374E1   1.529009714063579E2  -1.770915021847154E-1  -2.823238015797665E1  -8.456389625795063E-2  -2.852594692497772E1  -2.075356591008685E1   1.146985344037143E2  
 6.605000000000000E6    -2.052293559798788E1   1.518563028465512E2  -1.712349849699924E-1  -2.955262920543572E1  -8.493847910696487E-2  -2.982427354741816E1  -2.082543062789417E1   1.117597199872261E2  
 6.900000000000000E6    -2.068354586337345E1   1.510147652281144E2  -1.822759484083828E-1  -3.080217718900297E1  -9.550949419559722E-2  -3.110182459112618E1  -2.090636921299853E1   1.087544815700625E2  
 7.195000000000000E6    -2.081574687290168E1   1.499485468183482E2  -1.833451381801847E-1  -3.214227688006643E1  -9.761448500486154E-2  -3.239653600570796E1  -2.095536691261390E1   1.059971279796066E2  
 7.490000000000000E6    -2.089028738580374E1   1.493260141580282E2  -1.848373104988025E-1  -3.341155554171030E1  -1.007084597074695E-1  -3.371169940535876E1  -2.101149741768910E1   1.033562454450142E2  
 7.785000000000000E6    -2.102035448819138E1   1.485581266221846E2  -1.849303968665691E-1  -3.485141071955874E1  -1.455321399927745E-1  -3.491599795732421E1  -2.110859170418073E1   1.008426287048774E2  
 8.080000000000000E6    -2.110236003823564E1   1.483525062036168E2  -1.912553800885187E-1  -3.595877733893879E1  -1.071008933762336E-1  -3.625838980309992E1  -2.112658719356832E1   9.810029160886053E1  
 8.375000000000000E6    -2.119891685605368E1   1.477347595577227E2  -1.997042786533451E-1  -3.732001296186719E1  -1.146350072171267E-1  -3.759368634356081E1  -2.118153955091290E1   9.581061732015303E1  
 8.670000000000000E6    -2.125381431942225E1   1.474586595160072E2  -2.007370727113069E-1  -3.857379170954982E1  -1.192131030609236E-1  -3.886025095630177E1  -2.123064716662411E1   9.345487580284703E1  
 8.965000000000000E6    -2.128269841758227E1   1.473255629861425E2  -2.042442697274936E-1  -3.981682933883765E1  -1.272522468281950E-1  -4.008974490309770E1  -2.125398576192233E1   9.129934086852818E1  
 9.260000000000000E6    -2.131838655240576E1   1.468510826521528E2  -2.071368674041222E-1  -4.113668424640010E1  -1.312460110549550E-1  -4.139168817977288E1  -2.127802581382796E1   8.915433519041795E1  
 9.555000000000000E6    -2.134218231594267E1   1.465423358930374E2  -2.133929780055236E-1  -4.245790318119074E1  -1.358517312011048E-1  -4.269766484323084E1  -2.128793385562233E1   8.702729685617359E1  
 9.850000000000000E6    -2.133653765105463E1   1.464768083898285E2  -2.128372785588713E-1  -4.368799342333330E1  -1.376971514306941E-1  -4.395844209770875E1  -2.129732649136882E1   8.480803287665972E1  
 1.014500000000000E7    -2.133985051432520E1   1.460824161731788E2  -2.124255716863406E-1  -4.460573007884788E1  -1.426672669121013E-1  -4.502638940398339E1  -2.127808130320036E1   8.358379987096737E1  
 1.044000000000000E7    -2.132858986232219E1   1.458523049418046E2  -2.329971283001520E-1  -4.767315264974672E1  -1.541431385213211E-1  -4.721346577905336E1  -2.121281399783702E1   7.846244726887365E1  
 1.073500000000000E7    -2.131056436039670E1   1.456889940189833E2  -2.275767548616515E-1  -4.819210303473724E1  -1.530805910978668E-1  -4.810572726925594E1  -2.121291597375842E1   7.792085567341724E1  
 1.103000000000000E7    -2.127722500028100E1   1.454728465514126E2  -2.296425596441038E-1  -4.876463062241290E1  -1.508448454699996E-1  -4.899016098454573E1  -2.121023692576566E1   7.708929497184681E1  
 1.132500000000000E7    -2.124542514433973E1   1.452913667620654E2  -2.386847604144734E-1  -5.003734526477156E1  -1.663973016097875E-1  -5.026214602541555E1  -2.116356514236744E1   7.512839522475700E1  
 1.162000000000000E7    -2.116574791799420E1   1.450157476537969E2  -2.385495286131131E-1  -5.130725539652168E1  -1.676376810242787E-1  -5.155015048577027E1  -2.110783697162636E1   7.307101279420033E1  
 1.191500000000000E7    -2.110531478989277E1   1.446547654416459E2  -2.436199794716115E-1  -5.257642058104172E1  -1.704597683126643E-1  -5.279034288389472E1  -2.104489005925229E1   7.099522033993222E1  
 1.221000000000000E7    -2.103879465278784E1   1.442705258395064E2  -2.505966423754606E-1  -5.383486968954802E1  -1.785785894711085E-1  -5.404245562886376E1  -2.096207967752941E1   6.916351339191087E1  
 1.250500000000000E7    -2.097710238655398E1   1.439745409516992E2  -2.661426135130901E-1  -5.507470193601527E1  -1.934908162130748E-1  -5.526684217604056E1  -2.091098288934879E1   6.729165537616613E1  
 1.280000000000000E7    -2.092630775875815E1   1.435026758585384E2  -2.720587304958179E-1  -5.632892363462734E1  -1.981160752675506E-1  -5.653757256750014E1  -2.082321469071027E1   6.525367714684872E1  
 1.309500000000000E7    -2.083020795313771E1   1.430955153168320E2  -2.746487371053533E-1  -5.756816357564274E1  -1.992779343285916E-1  -5.779143647471066E1  -2.072847442920076E1   6.321365721915661E1  
 1.339000000000000E7    -2.074427645116930E1   1.424108846321675E2  -2.760849742420840E-1  -5.886817071134460E1  -2.005460681892231E-1  -5.905242749216009E1  -2.062983568400225E1   6.102690950317577E1  
 1.368500000000000E7    -2.064224739220385E1   1.419391989600205E2  -2.727485816494221E-1  -6.009518305523511E1  -1.983601063203770E-1  -6.030431871307150E1  -2.053525725596088E1   5.872697823414631E1  
 1.398000000000000E7    -2.055830500235280E1   1.412526533959668E2  -2.627067642917498E-1  -6.140324041702437E1  -1.836252469341249E-1  -6.158180909343802E1  -2.040841351561052E1   5.640401179399843E1  
 1.427500000000000E7    -2.048919111922539E1   1.407264748460805E2  -2.694284663647976E-1  -6.258287980763698E1  -1.977827638200162E-1  -6.277608706973015E1  -2.032767444878676E1   5.432749057551883E1  
 1.457000000000000E7    -2.040405344958537E1   1.400549688739212E2  -2.751892777152330E-1  -6.381443517064399E1  -2.011783234292631E-1  -6.400939369935537E1  -2.024196792879543E1   5.221395569322389E1  
 1.486500000000000E7    -2.031757975236547E1   1.393895826932125E2  -2.791780771251906E-1  -6.504055812567378E1  -2.107685801176389E-1  -6.523297367589116E1  -2.015333314704392E1   4.985511695458077E1  
 1.516000000000000E7    -2.023049262212547E1   1.385256414729299E2  -2.768019980053710E-1  -6.632183537962371E1  -2.060904205721224E-1  -6.652294148994474E1  -2.004139554762933E1   4.764840984658951E1  
 1.545500000000000E7    -2.013006496609879E1   1.377409666915649E2  -2.671791462357641E-1  -6.760578447401575E1  -1.927371819346454E-1  -6.771720012345639E1  -1.994827764174631E1   4.536669680648063E1  
 1.575000000000000E7    -2.004721120978554E1   1.370468703172122E2  -2.714653307148383E-1  -6.885518132091586E1  -2.037995040891772E-1  -6.904579536463939E1  -1.985000572725194E1   4.277874685021583E1  
 1.604500000000000E7    -1.996567027481044E1   1.360798261079833E2  -2.698525490571356E-1  -7.016427169295361E1  -1.995042924680597E-1  -7.032838459410579E1  -1.975584415703070E1   4.025462940155424E1  
 1.634000000000000E7    -1.987061196799361E1   1.353175769399612E2  -2.698642768924788E-1  -7.138272075723712E1  -2.006223317945343E-1  -7.154020281393692E1  -1.965237758364324E1   3.797351355392596E1  
 1.663500000000000E7    -1.978224182351905E1   1.344835191245551E2  -2.717748234102980E-1  -7.259987117724099E1  -2.007282565448267E-1  -7.274148359316750E1  -1.956772959547538E1   3.563687189774167E1  
 1.693000000000000E7    -1.971049313674538E1   1.336387486297510E2  -2.723823860613661E-1  -7.383547053373226E1  -2.005853430700621E-1  -7.398685680240914E1  -1.946873881359883E1   3.321125370549930E1  
 1.722500000000000E7    -1.961932855375031E1   1.326836833296908E2  -2.669361462976909E-1  -7.508975665680065E1  -2.005185616480042E-1  -7.524393370656529E1  -1.939154822446822E1   3.078817531112369E1  
 1.752000000000000E7    -1.953809381351944E1   1.316583115938916E2  -2.717566198836645E-1  -7.638412150252826E1  -2.002226868141674E-1  -7.650730405983842E1  -1.930576487192775E1   2.822840353717243E1  
 1.781500000000000E7    -1.946491060086829E1   1.307136842827848E2  -2.642132129131917E-1  -7.768041411896788E1  -1.992633349350642E-1  -7.782048002551589E1  -1.922413473942411E1   2.573890549291378E1  
 1.811000000000000E7    -1.939294329712963E1   1.296846129385961E2  -2.645887852911310E-1  -7.899800772353943E1  -1.920370366361196E-1  -7.908242540028962E1  -1.914233465506912E1   2.318687419108718E1  
 1.840500000000000E7    -1.933077499906433E1   1.287127551631472E2  -2.604654849255841E-1  -8.021712794234959E1  -1.918432319390851E-1  -8.030503016834410E1  -1.906478168652144E1   2.071018734073521E1  
 1.870000000000000E7    -1.927097642364085E1   1.276370534175874E2  -2.596921870527245E-1  -8.140750565841327E1  -1.934697374146959E-1  -8.154210680391937E1  -1.899646494544998E1   1.818231943706175E1  
 1.899500000000000E7    -1.921264917787702E1   1.265784905154500E2  -2.574872439803826E-1  -8.270454600398541E1  -1.888400477262880E-1  -8.281782779214193E1  -1.892717963689455E1   1.565608398677627E1  
 1.929000000000000E7    -1.914720276833107E1   1.255942328997246E2  -2.562590311537944E-1  -8.397832776444123E1  -1.845947559068415E-1  -8.408656923136508E1  -1.886329954096597E1   1.306962682162996E1  
 1.958500000000000E7    -1.909477726817169E1   1.246013792697087E2  -2.539733462805893E-1  -8.527452750060726E1  -1.849116511755937E-1  -8.535730618212610E1  -1.880333890784473E1   1.053908270135054E1  
 1.988000000000000E7    -1.905398815838489E1   1.235229259657096E2  -2.577707064318325E-1  -8.656297242562077E1  -1.878054710805398E-1  -8.668236779322400E1  -1.875098904756356E1   7.871205838667716  
 2.017500000000000E7    -1.900749044706972E1   1.225256933285468E2  -2.662557456509014E-1  -9.242912406630758E1  -1.801162403481535E-1  -9.077882432291932E1  -1.835344711839714E1   7.694801406945577  
 2.047000000000000E7    -1.894864377161084E1   1.214856379229939E2  -2.587997999692341E-1  -9.290621704422244E1  -1.757670507756938E-1  -9.156534089788674E1  -1.839297134274779E1   4.795556628937796  
 2.076500000000000E7    -1.889428899257932E1   1.204449826124133E2  -2.576230337798043E-1  -9.341792733940240E1  -1.766907025347254E-1  -9.235251328950886E1  -1.842462842845870E1   1.858859024671158  
 2.106000000000000E7    -1.885641829431382E1   1.192984486019014E2  -2.570391157609693E-1  -9.395108729017525E1  -1.804301193944436E-1  -9.315834656105258E1  -1.844948796849252E1  -1.159337231184603  
 2.135500000000000E7    -1.880324110478923E1   1.182487606414567E2  -2.544303954978384E-1  -9.447950770483432E1  -1.796909461264963E-1  -9.395436294028625E1  -1.845653180807399E1  -4.100209576753006  
 2.165000000000000E7    -1.875512834509348E1   1.171287487341745E2  -2.540837527500818E-1  -9.501236211172206E1  -1.777569482018478E-1  -9.478912261033636E1  -1.845763908663223E1  -7.174969373896512  
 2.194500000000000E7    -1.872414791419658E1   1.160554260207050E2  -2.587608552315553E-1  -9.554440433334403E1  -1.773167537323355E-1  -9.561093505965313E1  -1.845300107239748E1  -1.012867815967992E1  
 2.224000000000000E7    -1.868726687855888E1   1.149293225115867E2  -2.506274807210543E-1  -9.668756934183500E1  -1.748192718598555E-1  -9.678016484711341E1  -1.841806666162023E1  -1.285471828889334E1  
 2.253500000000000E7    -1.864370369491322E1   1.138631579309929E2  -2.480747328249619E-1  -9.795709327966515E1  -1.729357569736602E-1  -9.803941627246998E1  -1.837093016919716E1  -1.552789938800704E1  
 2.283000000000000E7    -1.860949407513285E1   1.127837264412329E2  -2.435061279583370E-1  -9.920627222306301E1  -1.683049983382394E-1  -9.929451614677070E1  -1.835387041261398E1  -1.816166304053938E1  
 2.312500000000000E7    -1.858992206469908E1   1.116924068624402E2  -2.409950469301448E-1  -1.005019718340166E2  -1.663428071813523E-1  -1.005796792874753E2  -1.833493262562071E1  -2.080896476021140E1  
 2.342000000000000E7    -1.855561456668063E1   1.105219683356400E2  -2.403781077940663E-1  -1.017830575531540E2  -1.684007817435932E-1  -1.018447476462664E2  -1.831603135539270E1  -2.343545449647474E1  
 2.371500000000000E7    -1.853075373433922E1   1.093598388930320E2  -2.443382888275237E-1  -1.030563058920268E2  -1.659150212810291E-1  -1.031464778088680E2  -1.830152364699709E1  -2.606756040639845E1  
 2.401000000000000E7    -1.851204862715606E1   1.081872905971945E2  -2.456839191352287E-1  -1.043572215302067E2  -1.677115759407437E-1  -1.044242410867672E2  -1.830402126952303E1  -2.872676056686566E1  
 2.430500000000000E7    -1.848220854775085E1   1.071287275608481E2  -2.394987267064207E-1  -1.056393875236404E2  -1.610796480385227E-1  -1.057005827676192E2  -1.828108557238775E1  -3.142574775098838E1  
 2.460000000000000E7    -1.845818535599190E1   1.060219985181402E2  -2.328471138809110E-1  -1.069085039331143E2  -1.564671123023679E-1  -1.069452902712536E2  -1.826583385556379E1  -3.397910414981465E1  
 2.489500000000000E7    -1.844334330889486E1   1.049639090059272E2  -2.305464623894325E-1  -1.081667077226948E2  -1.553819623031610E-1  -1.082382128571697E2  -1.825919730308384E1  -3.668872996414665E1  
 2.519000000000000E7    -1.842971860533447E1   1.038453390606911E2  -2.302997745865212E-1  -1.094689110370331E2  -1.533175683735707E-1  -1.095026661883398E2  -1.825309769651002E1  -3.928787851554404E1  
 2.548500000000000E7    -1.840109332842709E1   1.027941413791219E2  -2.292802738866689E-1  -1.107548498355245E2  -1.504027163356066E-1  -1.107750997464650E2  -1.825389628262474E1  -4.199429527398379E1  
 2.578000000000000E7    -1.840525108840791E1   1.016368603840983E2  -2.325205044351213E-1  -1.120363040471133E2  -1.484914546031612E-1  -1.120547856889842E2  -1.827554762801416E1  -4.467229589129795E1  
 2.607500000000000E7    -1.839413320249603E1   1.004970386277541E2  -2.293299409199152E-1  -1.132911637451079E2  -1.525644913398192E-1  -1.133410218713340E2  -1.827172460260430E1  -4.733531546309543E1  
 2.637000000000000E7    -1.837774844130103E1   9.945716796080357E1  -2.259316535077725E-1  -1.146053874266791E2  -1.482153984074522E-1  -1.146341009670928E2  -1.827376654891033E1  -5.005160605531798E1  
 2.666500000000000E7    -1.836012737830550E1   9.834434968142135E1  -2.207611501264348E-1  -1.158888945508982E2  -1.426252218562878E-1  -1.158987183995965E2  -1.827924413155254E1  -5.263915270093057E1  
 2.696000000000000E7    -1.837063750105277E1   9.721329952053719E1  -2.193874672911411E-1  -1.171708052228328E2  -1.386837959558775E-1  -1.171724271075163E2  -1.829055898335623E1  -5.537186153309700E1  
 2.725500000000000E7    -1.837150764571178E1   9.611767926513267E1  -2.206163095188221E-1  -1.184436794019202E2  -1.419156774783935E-1  -1.184731807869072E2  -1.830892830357016E1  -5.803761055625189E1  
 2.755000000000000E7    -1.835707456073575E1   9.502394917620131E1  -2.206178484162151E-1  -1.197283134321773E2  -1.374731253391363E-1  -1.197219904446205E2  -1.832535042077128E1  -6.074590028861292E1  
 2.784500000000000E7    -1.836638782396985E1   9.391436346567281E1  -2.196695445068214E-1  -1.210135737444784E2  -1.402804016167458E-1  -1.210308949489361E2  -1.836338739761839E1  -6.343304185044465E1  
 2.814000000000000E7    -1.837344143784613E1   9.277290698092081E1  -2.216955775352464E-1  -1.223128945394335E2  -1.354906388349088E-1  -1.222940404958257E2  -1.838058421644723E1  -6.613186162093058E1  
 2.843500000000000E7    -1.836183621859838E1   9.173159395581034E1  -2.205831324907046E-1  -1.235853472272502E2  -1.377073925471029E-1  -1.236152707512049E2  -1.839507896926336E1  -6.883528993612680E1  
 2.873000000000000E7    -1.836109120708852E1   9.060727196943640E1  -2.182719731732125E-1  -1.248950249197921E2  -1.337230067399065E-1  -1.248929102462616E2  -1.841805838805986E1  -7.153361579262707E1  
 2.902500000000000E7    -1.837058357379889E1   8.951539108009867E1  -2.161707538607885E-1  -1.261609517908061E2  -1.327314659017375E-1  -1.261785810542916E2  -1.844061296427326E1  -7.423938006137102E1  
 2.932000000000000E7    -1.837450110908262E1   8.848381473927316E1  -2.136441475418541E-1  -1.274563648066899E2  -1.313215421847525E-1  -1.274411490293583E2  -1.846835799758622E1  -7.690960964813543E1  
