#  HZ   S   DB   R     50.00 
! Rohde & Schwarz ZVT8 8Ports - Version 4.11 - 1300.0000k08 SN: 100242
! Date: 2024-03-13 12:50:38
! Measurements: S11 S21 S12 S22 
! 
 1.000000000000000E6    -2.636112939927549E1  -1.295860192350721E2  -1.166398041237509E-1  -4.657684494689189   3.471546040191489E-2  -5.035883232168984  -2.329048440864355E1  -1.464578699399909E2  
 1.295000000000000E6    -2.144101331608862E1  -1.528119626199119E2  -1.017184232072934E-1  -6.106802636268519   1.759481237335177E-2  -6.365685466779193  -2.252894022753334E1  -1.593440307326063E2  
 1.590000000000000E6    -2.085093529844576E1  -1.603228197595234E2  -1.046240813355755E-1  -7.441590801940080   1.192832820658609E-2  -7.682755799492399  -2.174115164948678E1  -1.687337673171300E2  
 1.885000000000000E6    -2.019015919900449E1  -1.657142041717565E2  -1.205046117459913E-1  -8.737893279290827   7.187718462294877E-3  -9.033460273148510  -2.093187642946867E1  -1.755830054587418E2  
 2.180000000000000E6    -1.970533628494949E1  -1.706250543098134E2  -1.237931293664537E-1  -1.002289029693711E1   8.385037347503040E-3  -1.036267700854424E1  -2.051226685522186E1   1.770684646702663E2  
 2.475000000000000E6    -1.960911229202495E1  -1.757223536827456E2  -1.306273083387672E-1  -1.136709539014977E1  -9.441075224375749E-4  -1.164019280797448E1  -2.033853615236110E1   1.697416784200231E2  
 2.770000000000000E6    -1.951488824546932E1  -1.797929924554249E2  -1.394395185841878E-1  -1.264716425893357E1  -1.169955490159111E-2  -1.298941214344994E1  -2.016136537725538E1   1.636661408124880E2  
 3.065000000000000E6    -1.947914789396525E1   1.769602600719769E2  -1.447417435541810E-1  -1.399608988360136E1  -2.347312272071921E-2  -1.430132924724778E1  -2.005724588439121E1   1.584945553248359E2  
 3.360000000000000E6    -1.947925626254371E1   1.732539366543701E2  -1.431496567950138E-1  -1.529916110477280E1  -2.314015139214039E-2  -1.557256060304650E1  -2.008572572298918E1   1.527476258860048E2  
 3.655000000000000E6    -1.952580557293607E1   1.703212241197016E2  -1.497440991685148E-1  -1.659538021276406E1  -2.949934819367204E-2  -1.687468475394891E1  -2.012009122023830E1   1.477840326989797E2  
 3.950000000000000E6    -1.958332726585712E1   1.678004469814039E2  -1.574907656001796E-1  -1.785485023673842E1  -4.413408159359451E-2  -1.817842922058524E1  -2.016410547008367E1   1.436078591438899E2  
 4.245000000000000E6    -1.966588960368333E1   1.652676393843905E2  -1.610235753258408E-1  -1.918102028268622E1  -4.600151705824912E-2  -1.945236218868261E1  -2.022666229664219E1   1.392613182887965E2  
 4.540000000000000E6    -1.973346186241475E1   1.632492532664413E2  -1.550345244529653E-1  -2.045949149886760E1  -4.292112145871380E-2  -2.070149127953991E1  -2.027014341256544E1   1.352927734417873E2  
 4.835000000000000E6    -1.983685130198557E1   1.612451947360375E2  -1.575649217966372E-1  -2.173811695562193E1  -5.429327233340608E-2  -2.200211179449563E1  -2.035016163176391E1   1.315037691435006E2  
 5.130000000000000E6    -1.996404720174483E1   1.591502387641440E2  -1.606150527385870E-1  -2.303800904447800E1  -6.262314548861925E-2  -2.333224163116919E1  -2.042441992524681E1   1.278627917665471E2  
 5.425000000000000E6    -2.003236413874612E1   1.573035082319493E2  -1.560625818091438E-1  -2.438508352427041E1  -6.027384878139821E-2  -2.462707429217983E1  -2.049093803155942E1   1.242443435136832E2  
 5.720000000000000E6    -2.016113969716107E1   1.558140344374030E2  -1.633263010692750E-1  -2.566563832450763E1  -6.439888873849298E-2  -2.591610566407589E1  -2.056893243630026E1   1.209358718529786E2  
 6.015000000000000E6    -2.031465671415528E1   1.546086486083268E2  -1.755929607884909E-1  -2.686132315218819E1  -8.120620373306260E-2  -2.719197835731459E1  -2.066078812549878E1   1.175907303605206E2  
 6.310000000000000E6    -2.045625177551372E1   1.530354616772993E2  -1.730342322335191E-1  -2.821752035080992E1  -8.527903963096999E-2  -2.851097386423246E1  -2.071607312768166E1   1.144217463799366E2  
 6.605000000000000E6    -2.055093694181740E1   1.518481355268689E2  -1.735958218453966E-1  -2.953592708265839E1  -8.601485847814773E-2  -2.980854075767634E1  -2.077835809886639E1   1.115442524551945E2  
 6.900000000000000E6    -2.070714100589349E1   1.510605897478488E2  -1.819567329612359E-1  -3.078763829495122E1  -9.333942253290947E-2  -3.107719195737380E1  -2.085225553183036E1   1.085374090288902E2  
 7.195000000000000E6    -2.084015420112380E1   1.500559406995926E2  -1.835971078832863E-1  -3.212395760407939E1  -9.198126174347890E-2  -3.237351559305825E1  -2.090234220605969E1   1.057198664013324E2  
 7.490000000000000E6    -2.092692890577481E1   1.495267594607458E2  -1.857820898616504E-1  -3.339695993400573E1  -1.030571420692443E-1  -3.370518757817519E1  -2.096091453255450E1   1.030772048191394E2  
 7.785000000000000E6    -2.100820811494504E1   1.489637071027742E2  -1.721579566279471E-1  -3.462364599837562E1  -9.185921829848347E-2  -3.521429559479756E1  -2.101260729768842E1   1.003898100795929E2  
 8.080000000000000E6    -2.112744614293172E1   1.483298301179863E2  -1.884473711361063E-1  -3.595054680978100E1  -1.088183755046525E-1  -3.625394593777608E1  -2.108080835011212E1   9.785013143156152E1  
 8.375000000000000E6    -2.122228431149684E1   1.479395714310008E2  -1.973280213736262E-1  -3.727596957410557E1  -1.130717071816158E-1  -3.756730354429267E1  -2.111035614234349E1   9.552503947015859E1  
 8.670000000000000E6    -2.128642920230410E1   1.476334069278399E2  -1.981342016031086E-1  -3.856940040584954E1  -1.184595194241551E-1  -3.883136748318852E1  -2.115641046718242E1   9.336345682808717E1  
 8.965000000000000E6    -2.131121014400991E1   1.474767078522212E2  -1.998180680885137E-1  -3.980105917050761E1  -1.250873857091678E-1  -4.007177725252637E1  -2.118961721679338E1   9.089516697977349E1  
 9.260000000000000E6    -2.135612045428693E1   1.470970642081764E2  -2.084187588462716E-1  -4.109782235324339E1  -1.271829301716038E-1  -4.136638128103441E1  -2.119930864709154E1   8.888846020336086E1  
 9.555000000000000E6    -2.139117953510581E1   1.467574967499014E2  -2.146252465835653E-1  -4.241248719049260E1  -1.366187731738233E-1  -4.266938213362334E1  -2.121913398502738E1   8.675229211567664E1  
 9.850000000000000E6    -2.139494771711250E1   1.466368099575859E2  -2.142371163365099E-1  -4.365216002554215E1  -1.358647307635824E-1  -4.390560851438450E1  -2.122411468573239E1   8.467703257284093E1  
 1.014500000000000E7    -2.137178719556487E1   1.463764868003817E2  -2.133308596573570E-1  -4.453569491092667E1  -1.424469039346535E-1  -4.498673935442512E1  -2.120425886091951E1   8.336865246137701E1  
 1.044000000000000E7    -2.137047461153999E1   1.461903896516735E2  -2.317324802338966E-1  -4.757563865864258E1  -1.524154622961755E-1  -4.720302782690059E1  -2.112074640652609E1   7.818348779823857E1  
 1.073500000000000E7    -2.135795869203843E1   1.459802321727788E2  -2.311592120773962E-1  -4.813266872007333E1  -1.501209263425082E-1  -4.805825340862729E1  -2.112895766527717E1   7.763913871958276E1  
 1.103000000000000E7    -2.130882128457255E1   1.457145856523592E2  -2.256848819063861E-1  -4.870602458258800E1  -1.499106892964847E-1  -4.894902381926020E1  -2.111353985429784E1   7.678406063957695E1  
 1.132500000000000E7    -2.127485391983014E1   1.454915243708072E2  -2.404417627400923E-1  -4.999050760726493E1  -1.682659693171993E-1  -5.022653624257307E1  -2.107980174762391E1   7.486884940743806E1  
 1.162000000000000E7    -2.122162539174363E1   1.451287380124514E2  -2.410758438884111E-1  -5.127396044003978E1  -1.656158970156194E-1  -5.149153385395121E1  -2.102305809727924E1   7.289606762754934E1  
 1.191500000000000E7    -2.113264267193397E1   1.448994331316492E2  -2.391154603176981E-1  -5.251604873977510E1  -1.703335833784584E-1  -5.271833670929241E1  -2.095742684499742E1   7.083175681451998E1  
 1.221000000000000E7    -2.109301776651313E1   1.444434762793418E2  -2.508951333201871E-1  -5.379058192825465E1  -1.746755947698785E-1  -5.398593840663425E1  -2.087775452750661E1   6.897305888354492E1  
 1.250500000000000E7    -2.104376565666350E1   1.441677334518292E2  -2.681092271473586E-1  -5.500700653577120E1  -1.904668207517979E-1  -5.523616899584049E1  -2.080849704620569E1   6.708774678242800E1  
 1.280000000000000E7    -2.097496148600048E1   1.436163841819829E2  -2.739915853971491E-1  -5.627517341652903E1  -1.953764373048446E-1  -5.648337688798169E1  -2.072234874929301E1   6.510345974326683E1  
 1.309500000000000E7    -2.088891762496118E1   1.432856591736486E2  -2.770491613252412E-1  -5.750114777180824E1  -2.006094707492889E-1  -5.774065967264631E1  -2.064244753721690E1   6.302318329166797E1  
 1.339000000000000E7    -2.078624389338599E1   1.427090395329138E2  -2.776213020035093E-1  -5.879322768843189E1  -2.022330591156883E-1  -5.898183222792758E1  -2.054906807798493E1   6.084522156035329E1  
 1.368500000000000E7    -2.071512288121019E1   1.421613105160140E2  -2.740761528546719E-1  -6.003863293905902E1  -1.981221637795322E-1  -6.024641590049911E1  -2.042773371182636E1   5.855380670373983E1  
 1.398000000000000E7    -2.061446877734071E1   1.414805444644684E2  -2.661604494319655E-1  -6.133931875060240E1  -1.890744380190274E-1  -6.152029105144499E1  -2.033367894191268E1   5.617144284740974E1  
 1.427500000000000E7    -2.053601452277398E1   1.410140175326646E2  -2.670001491853891E-1  -6.252109369445621E1  -1.946070674082600E-1  -6.272008365417914E1  -2.023074085095299E1   5.421843941055827E1  
 1.457000000000000E7    -2.045801331043715E1   1.403074747054569E2  -2.798831017837958E-1  -6.375373364417004E1  -2.046300040274417E-1  -6.391357643725346E1  -2.014864618242164E1   5.210685318067246E1  
 1.486500000000000E7    -2.035062442788698E1   1.396000569928263E2  -2.813073203814157E-1  -6.498081500815276E1  -2.103116617303214E-1  -6.518855306592060E1  -2.004225060576006E1   4.976099272183301E1  
 1.516000000000000E7    -2.027265835745696E1   1.387386476202456E2  -2.847939779320241E-1  -6.621719241723903E1  -2.121728961902166E-1  -6.642637471524613E1  -1.994858812003521E1   4.753933917436289E1  
 1.545500000000000E7    -2.018857034431611E1   1.379832893107550E2  -2.901250641349260E-1  -6.750274768545195E1  -2.167151112227635E-1  -6.768131277236226E1  -1.985149649784258E1   4.518944949712782E1  
 1.575000000000000E7    -2.007880827008392E1   1.373134150660371E2  -2.717753144217599E-1  -6.880446674016497E1  -2.049928639955692E-1  -6.897331240172099E1  -1.975206189706869E1   4.270683249548171E1  
 1.604500000000000E7    -2.001683335159417E1   1.363250508663315E2  -2.743241917956448E-1  -7.007730683511588E1  -2.014351912196762E-1  -7.026090055861820E1  -1.964795953339418E1   4.022752052426591E1  
 1.634000000000000E7    -1.994107200117067E1   1.355170535867134E2  -2.740045822346772E-1  -7.131120346129644E1  -2.020140309452926E-1  -7.146533114472456E1  -1.955768270950244E1   3.793788228721698E1  
 1.663500000000000E7    -1.983786852712062E1   1.347361536923355E2  -2.675150540935485E-1  -7.250751052522918E1  -1.984114950292293E-1  -7.268900797506068E1  -1.945912035826098E1   3.563354239215940E1  
 1.693000000000000E7    -1.975756679077927E1   1.337980584090096E2  -2.746050261029219E-1  -7.374794248644560E1  -2.034077765097846E-1  -7.391922792854494E1  -1.937682064771720E1   3.321433691581768E1  
 1.722500000000000E7    -1.967716016389035E1   1.328784693629409E2  -2.729775013244309E-1  -7.500808786119521E1  -2.025398009168239E-1  -7.515518874362785E1  -1.929113763476378E1   3.081540174231347E1  
 1.752000000000000E7    -1.958725410527817E1   1.319514106541189E2  -2.726057500959758E-1  -7.629389258246830E1  -2.012033146528677E-1  -7.644719802256583E1  -1.920811198331237E1   2.827091007199329E1  
 1.781500000000000E7    -1.951002670346556E1   1.309443463409741E2  -2.649381205761308E-1  -7.760868745669927E1  -1.961517138253588E-1  -7.773731710920066E1  -1.912441438644985E1   2.576013697874622E1  
 1.811000000000000E7    -1.944117712822582E1   1.298373588196303E2  -2.656320667556378E-1  -7.889526298795187E1  -1.916943975355551E-1  -7.900310089923242E1  -1.903056096506337E1   2.325993320169254E1  
 1.840500000000000E7    -1.937861041630547E1   1.288956317201083E2  -2.599059654124362E-1  -8.011668877833927E1  -1.895208806469074E-1  -8.023306932666124E1  -1.895566472796683E1   2.074947223143530E1  
 1.870000000000000E7    -1.931780044060749E1   1.278616907776949E2  -2.611773183562310E-1  -8.132702797567262E1  -1.910530673804390E-1  -8.143874778624485E1  -1.888804556983390E1   1.830560928281858E1  
 1.899500000000000E7    -1.925196646935508E1   1.267769797901853E2  -2.596467055363780E-1  -8.262407519895278E1  -1.859657161278048E-1  -8.270032688545493E1  -1.881791185435415E1   1.573917407391803E1  
 1.929000000000000E7    -1.919515595932753E1   1.257459460237755E2  -2.568326141721727E-1  -8.388112184551439E1  -1.859095996647875E-1  -8.396620922937287E1  -1.876160403388453E1   1.322641533718739E1  
 1.958500000000000E7    -1.913590409163029E1   1.247839819083777E2  -2.568932792976598E-1  -8.516373559089789E1  -1.867887026713939E-1  -8.526278866585270E1  -1.870801633387723E1   1.067560403660266E1  
 1.988000000000000E7    -1.909073687973602E1   1.237605774553604E2  -2.565926673837369E-1  -8.647296812414281E1  -1.864896111492812E-1  -8.657606655443038E1  -1.864681184407784E1   7.985863240309770  
 2.017500000000000E7    -1.905235783576904E1   1.227131529862193E2  -2.663796538162616E-1  -9.231791240330934E1  -1.804131278445529E-1  -9.068357152361861E1  -1.825660456696148E1   7.742953447796856  
 2.047000000000000E7    -1.898693385211434E1   1.216397544724390E2  -2.607815567143112E-1  -9.281731228594096E1  -1.764595539311543E-1  -9.145803205259729E1  -1.828941556973503E1   4.910691211946026  
 2.076500000000000E7    -1.893702521618182E1   1.205782523530750E2  -2.570025464899506E-1  -9.331802012997115E1  -1.794086638470608E-1  -9.223884205938161E1  -1.832099294160998E1   2.024558163456989  
 2.106000000000000E7    -1.888277895550899E1   1.194535608100299E2  -2.585561874730206E-1  -9.384300603121582E1  -1.784423674797963E-1  -9.304536373421165E1  -1.833982317748552E1  -9.129978940556817E-1  
 2.135500000000000E7    -1.883424372063901E1   1.183352523920283E2  -2.566205824469167E-1  -9.436790298382374E1  -1.790062584231872E-1  -9.384254921786805E1  -1.835046040761152E1  -3.885728742764588  
 2.165000000000000E7    -1.879559374513303E1   1.172340498652943E2  -2.568032395644140E-1  -9.490372968689499E1  -1.750625478139695E-1  -9.468079832918383E1  -1.836270477346569E1  -6.917499427881836  
 2.194500000000000E7    -1.875479403343348E1   1.161437359765441E2  -2.593643423458610E-1  -9.544140283273531E1  -1.814285961543483E-1  -9.548634339939058E1  -1.836011363939772E1  -9.933415596874237  
 2.224000000000000E7    -1.872527542467419E1   1.150755092414372E2  -2.526830606853787E-1  -9.655478031993368E1  -1.742733655826156E-1  -9.667254377938251E1  -1.831374839647954E1  -1.264216087977885E1  
 2.253500000000000E7    -1.867496518243516E1   1.139398624413994E2  -2.485704716373516E-1  -9.784026207642650E1  -1.721461026636914E-1  -9.792087289263314E1  -1.827501785603874E1  -1.520698086924853E1  
 2.283000000000000E7    -1.865809999202412E1   1.129082948924645E2  -2.474149165489116E-1  -9.908274367208396E1  -1.701292888589592E-1  -9.919134360945436E1  -1.824407792179260E1  -1.786421535204566E1  
 2.312500000000000E7    -1.861841767496204E1   1.118209826356103E2  -2.436073028633675E-1  -1.003679414991451E2  -1.665559777089384E-1  -1.004472532250646E2  -1.822671432072588E1  -2.046115732811089E1  
 2.342000000000000E7    -1.858739992020088E1   1.106678773137405E2  -2.459826672141674E-1  -1.016608203392736E2  -1.672849178634420E-1  -1.017207489007157E2  -1.821486627875691E1  -2.306081005816541E1  
 2.371500000000000E7    -1.856727263064076E1   1.094698518386800E2  -2.464968803800725E-1  -1.029515134857417E2  -1.663857218095530E-1  -1.030076609748396E2  -1.820338283466473E1  -2.573061342956656E1  
 2.401000000000000E7    -1.853830339417572E1   1.082744483626821E2  -2.480259771227178E-1  -1.042193993082285E2  -1.700462118320665E-1  -1.043168093666580E2  -1.820160170066675E1  -2.838741971606579E1  
 2.430500000000000E7    -1.851072544640689E1   1.072227147770967E2  -2.388772452413523E-1  -1.055072438770630E2  -1.577337149652649E-1  -1.055714180458610E2  -1.817817243506935E1  -3.096661997948844E1  
 2.460000000000000E7    -1.848904653803005E1   1.061778321595693E2  -2.340803991527294E-1  -1.067647774708624E2  -1.557451357327080E-1  -1.068363730408188E2  -1.816304592124758E1  -3.361769996019943E1  
 2.489500000000000E7    -1.846718035451636E1   1.050154696782891E2  -2.329152261584687E-1  -1.080421175673784E2  -1.550753329108125E-1  -1.081115904550052E2  -1.814838072264529E1  -3.620907796536231E1  
 2.519000000000000E7    -1.845654490791630E1   1.039783650705989E2  -2.317264694376425E-1  -1.093463521716223E2  -1.516418314946095E-1  -1.093724510987777E2  -1.814961545472880E1  -3.884581545369214E1  
 2.548500000000000E7    -1.843687851690877E1   1.028319891152747E2  -2.322591292136053E-1  -1.106119002707743E2  -1.479674755229999E-1  -1.106518320828692E2  -1.815758619395989E1  -4.152049747996747E1  
 2.578000000000000E7    -1.840727910782474E1   1.017612124166711E2  -2.331420034916517E-1  -1.119139064706419E2  -1.513845289421475E-1  -1.119302738725112E2  -1.817448519088323E1  -4.416225747840631E1  
 2.607500000000000E7    -1.840709000339489E1   1.006378228997666E2  -2.304148506050601E-1  -1.131780752691887E2  -1.526623790044905E-1  -1.132001782423198E2  -1.817730080526933E1  -4.687574242233944E1  
 2.637000000000000E7    -1.838679573501706E1   9.955722688804460E1  -2.262860526815098E-1  -1.144682142861527E2  -1.455393318358696E-1  -1.144836654891223E2  -1.817284893597421E1  -4.953530554934646E1  
 2.666500000000000E7    -1.838356197925441E1   9.843138735716738E1  -2.215281223756980E-1  -1.157362096018413E2  -1.428417490916038E-1  -1.157720334172886E2  -1.817900356874167E1  -5.215617527838560E1  
 2.696000000000000E7    -1.838484831166210E1   9.735002402741293E1  -2.198373020504819E-1  -1.170162112954586E2  -1.395339307127982E-1  -1.170535940537903E2  -1.820006762846196E1  -5.484146325065234E1  
 2.725500000000000E7    -1.837612150825842E1   9.625848951861063E1  -2.213750394087466E-1  -1.182961931782147E2  -1.413054295621496E-1  -1.183243787375759E2  -1.821592854086733E1  -5.747142546817864E1  
 2.755000000000000E7    -1.837643037039887E1   9.516408479678037E1  -2.245018427743251E-1  -1.195651432474652E2  -1.420211421371446E-1  -1.196020675140092E2  -1.823473099472933E1  -6.016381072112238E1  
 2.784500000000000E7    -1.837537204351351E1   9.401333256614521E1  -2.248496764624020E-1  -1.208818487271482E2  -1.385235046475210E-1  -1.208878170759581E2  -1.826435285313424E1  -6.286971830144924E1  
 2.814000000000000E7    -1.837835026048403E1   9.287603826719000E1  -2.198251815088665E-1  -1.221546296304147E2  -1.374235456878983E-1  -1.221639719366807E2  -1.828927327897431E1  -6.553872605115613E1  
 2.843500000000000E7    -1.836310631948887E1   9.183313845570672E1  -2.220064057616241E-1  -1.234397446513899E2  -1.373192367477273E-1  -1.234509552046555E2  -1.830511577680581E1  -6.822032484199922E1  
 2.873000000000000E7    -1.837099159044594E1   9.074634186829751E1  -2.167022815253205E-1  -1.247340582752912E2  -1.324730733781024E-1  -1.247460259806611E2  -1.833370014619003E1  -7.088597711163207E1  
 2.902500000000000E7    -1.837324374771528E1   8.966052870684884E1  -2.203693767930331E-1  -1.260089627616470E2  -1.304471333958942E-1  -1.260267978614646E2  -1.836096923347764E1  -7.354772003219537E1  
 2.932000000000000E7    -1.837355379545447E1   8.856993563410663E1  -2.144646210762770E-1  -1.272982922692799E2  -1.273903901324457E-1  -1.273036313992214E2  -1.838402573158807E1  -7.624587567351442E1  
