#  HZ   S   DB   R     50.00 
! Rohde & Schwarz ZVT8 8Ports - Version 4.11 - 1300.0000k08 SN: 100242
! Date: 2024-03-13 13:31:02
! Measurements: S11 S12 S13 S21 S22 S23 S31 S32 S33 
! 
 1.000000000000000E6    -2.859397886135535E1  -1.564881596889246E2  -4.643899609862229E-2  -1.292033328699769E1  -9.084304939001852E1   8.027439088516091E1  
                        -1.970703860452837E-1  -1.261194387697752E1  -2.405006479481291E1  -1.647284940759209E2  -9.359801371115073E1   6.954097271550860E1  
                        -9.246186595862037E1   7.709033285774113E1  -9.268872092924515E1   6.594528646312786E1  -4.889515033718687E-3  -9.110750331060359  
                        
 1.295000000000000E6    -2.208814579390885E1  -1.761425031843452E2  -5.597402068289914E-2  -1.652803958132836E1  -9.246767408923714E1   8.090494167447618E1  
                        -1.848040333914289E-1  -1.627349965037560E1  -2.299693065596396E1   1.748760441008900E2  -9.229134650735490E1   7.438113102568559E1  
                        -9.029543126702291E1   6.712760839861285E1  -9.187552873070470E1   8.422332334360428E1  -4.333105665251168E-2  -1.134042125713091E1  
                        
 1.590000000000000E6    -2.128547246527584E1   1.704782224995753E2  -6.497130906193489E-2  -2.009194817868502E1  -9.030015180069060E1   6.505697584801858E1  
                        -1.918458192207427E-1  -1.982982500355489E1  -2.199100336714970E1   1.596979107276714E2  -8.952954432868593E1   6.771885688862831E1  
                        -8.791392302274419E1   7.127481332831761E1  -9.169320520036656E1   6.900716967115861E1  -2.252154613025715E-2  -1.393270425332077E1  
                        
 1.885000000000000E6    -2.052900061571889E1   1.604290859350716E2  -7.661609824053219E-2  -2.369821869237679E1  -8.638472196760780E1   6.761398828717782E1  
                        -2.124805123970917E-1  -2.336537811736605E1  -2.115826468734547E1   1.482999687724302E2  -8.654306207777587E1   6.972785339982454E1  
                        -8.762108625352971E1   6.384931318530733E1  -8.827043079747301E1   8.571094268104285E1  -2.362339361783696E-3  -1.701377512607869E1  
                        
 2.180000000000000E6    -2.002537663884207E1   1.508894900552261E2  -1.012996489251340E-1  -2.725658198463409E1  -8.185895225945522E1   5.140016660800936E1  
                        -2.393121528694775E-1  -2.687316144044146E1  -2.065838980034382E1   1.364529234663027E2  -7.989787702141160E1   9.256368902865384E1  
                        -8.319264295635709E1   9.563114172852981E1  -9.876602462961319E1  -1.408988861921626E1  -7.528465833806508E-3  -1.980847343031846E1  
                        
 2.475000000000000E6    -1.975857980530465E1   1.407594507492557E2  -1.167478586323998E-1  -3.080339099887700E1  -8.065852127353602E1   8.102247482250321E1  
                        -2.500373896261172E-1  -3.045862506123121E1  -2.027857512245790E1   1.242065714701802E2  -8.811187364334595E1   5.833859688374138E1  
                        -9.145050227728477E1  -2.418280005751229  -7.975685236235881E1   6.662184640624902E1  -2.021142208966053E-2  -2.243333654009247E1  
                        
 2.770000000000000E6    -1.954209738166234E1   1.317483937020296E2  -1.408994862244230E-1  -3.442225723432437E1  -8.286470033731257E1   3.034075377027552E1  
                        -2.665581549989228E-1  -3.407126658638384E1  -1.998484987732225E1   1.137171286642034E2  -8.529661088999414E1   1.196500358099999E2  
                        -8.414993951296640E1   4.801438290349248E1  -8.771679967066443E1  -5.400463140145538E1  -3.940883440386073E-2  -2.522479226519947E1  
                        
 3.065000000000000E6    -1.945624093505375E1   1.237862929675879E2  -1.618162539322205E-1  -3.804679831651158E1  -8.278264683902806E1   6.161227463084692E1  
                        -2.839314480807458E-1  -3.765498278787756E1  -1.984358943516004E1   1.041435981221502E2  -7.988989410997489E1   7.413117541872572E1  
                        -8.164769432114177E1   1.186475405748927E2  -7.980498096932175E1   8.817509471411034E1  -5.815722003423939E-2  -2.810244215265801E1  
                        
 3.360000000000000E6    -1.931093741573335E1   1.156316687555019E2  -1.757665859209549E-1  -4.160055576832524E1  -8.041153892706662E1   8.058669476969492E1  
                        -2.931034369118581E-1  -4.124194878657035E1  -1.966507501545171E1   9.413471380610000E1  -7.609001357418516E1   5.274213863945221E1  
                        -8.602057865010599E1   5.447552817931970E1  -9.362030461005237E1   2.574876183510257E1  -7.160168678773501E-2  -3.070713295082278E1  
                        
 3.655000000000000E6    -1.927331043018779E1   1.081570233571076E2  -1.855322033218501E-1  -4.533244617652501E1  -8.210693102724910E1   1.784718282544349E1  
                        -3.101762974520468E-1  -4.484207136761768E1  -1.957187555925407E1   8.483780906146673E1  -8.018899310934884E1   5.823144658400130E1  
                        -8.283107868842966E1   6.826700600861210E1  -7.728549703028422E1   6.424742207516653E1  -9.710693088140321E-2  -3.343336272136111E1  
                        
 3.950000000000000E6    -1.926861565448553E1   1.012246163899357E2  -2.208512880472623E-1  -4.882894064294411E1  -8.145081986841828E1   1.260509147249616E2  
                        -3.298042902857278E-1  -4.843840483659792E1  -1.958276633983605E1   7.656829763639152E1  -7.970144908786880E1   5.428288425869667E1  
                        -8.004187036106603E1   8.638646509620813E1  -8.184272956803169E1   8.808642634856443E1  -1.173450327810983E-1  -3.619874409680294E1  
                        
 4.245000000000000E6    -1.925668009682821E1   9.424225688892345E1  -2.279143437605419E-1  -5.241751156549555E1  -7.654188554084297E1   2.955864244306428E1  
                        -3.404028224618635E-1  -5.207549391929350E1  -1.951544884278589E1   6.832588854230113E1  -7.875597014623497E1   7.473713519938734E1  
                        -7.545045310214952E1   4.496605961721064E1  -7.926304085404500E1   7.264772126110165E1  -1.345630978527079E-1  -3.889255969161145E1  
                        
 4.540000000000000E6    -1.927926283935246E1   8.800001062406497E1  -2.456695977470519E-1  -5.604206737075055E1  -7.994640342850883E1   6.151449677596636E1  
                        -3.497308726701410E-1  -5.565552466074087E1  -1.950727624216843E1   6.040343868256746E1  -7.741800825130865E1   2.467652864767927E1  
                        -8.085048927290130E1   1.174595954235102E1  -7.705667677055509E1   7.720279119809139E1  -1.525767464171623E-1  -4.162399305374935E1  
                        
 4.835000000000000E6    -1.931748392437048E1   8.169040372163255E1  -2.699520047346635E-1  -5.965517182103778E1  -7.952721588486686E1   7.515946075196059E1  
                        -3.636327037371809E-1  -5.926798144992701E1  -1.950794651886455E1   5.279500791741243E1  -7.657842207784451E1   3.845004954648885E1  
                        -7.644487664968631E1   7.207020557717954E1  -7.712602830796514E1   5.015889907458456E1  -1.796884723448781E-1  -4.446012285861239E1  
                        
 5.130000000000000E6    -1.932527383747537E1   7.523611361275536E1  -2.866158867311011E-1  -6.331590192209448E1  -7.655439217278301E1   4.486990103024847E1  
                        -3.751628119240383E-1  -6.291136701360660E1  -1.952232456754783E1   4.530806016189370E1  -7.602896594695469E1   4.705957365212581E1  
                        -7.414748455677592E1   3.454548693137005E1  -7.510711205182257E1   7.097225653395388E1  -2.059230472649371E-1  -4.725441842645751E1  
                        
 5.425000000000000E6    -1.937971740019906E1   6.950446300503322E1  -3.007161125121053E-1  -6.694324160312246E1  -7.611798380402627E1   3.992072512443161E1  
                        -3.860880012918195E-1  -6.652554563801783E1  -1.952655442125870E1   3.803591053107547E1  -7.592153273227662E1   4.899100050266322E1  
                        -7.863693939247347E1   3.994640981043819E1  -7.556938828015980E1   5.524217524554216E1  -2.247773743086525E-1  -5.002968334681840E1  
                        
 5.720000000000000E6    -1.945518886063208E1   6.366952780960337E1  -3.232073737665815E-1  -7.056643309002148E1  -7.774101423983768E1   3.712223598951098E1  
                        -4.043878716480294E-1  -7.013761662300544E1  -1.956500128251895E1   3.088081645415680E1  -7.612308619054184E1   5.642778620781403E1  
                        -7.878075619937779E1   1.174058887579415  -7.568013265946331E1   3.691270571852306E1  -2.681802335495043E-1  -5.278468624892042E1  
                        
 6.015000000000000E6    -1.953468143304557E1   5.770411454097737E1  -3.524929387490322E-1  -7.418127364689656E1  -7.497278168907096E1  -8.366027483740489E-1  
                        -4.289841015571923E-1  -7.371376610256965E1  -1.959684227412809E1   2.393206873007679E1  -7.816713871624394E1   3.052514251823341E1  
                        -7.506920748104626E1   8.917021007785586  -7.582029742199592E1   4.737291855168896E1  -3.263895973042774E-1  -5.550928003722954E1  
                        
 6.310000000000000E6    -1.959204470300890E1   5.195852905617907E1  -3.660353490512051E-1  -7.783765707479977E1  -7.624731519373651E1   4.707111906539247E1  
                        -4.406884081648393E-1  -7.738545100022341E1  -1.966170176718854E1   1.698606099430747E1  -7.375991667715731E1   5.234384637610690E1  
                        -7.602132768843603E1   2.148510440956365E1  -7.512137241931823E1   3.410081840296800E1  -3.499142295790303E-1  -5.829409591550034E1  
                        
 6.605000000000000E6    -1.968746424922694E1   4.673608260466689E1  -3.845288518333590E-1  -8.148357506255837E1  -7.638051408837295E1  -9.494881888065347  
                        -4.499958597750704E-1  -8.100671529077768E1  -1.973853635984912E1   1.030842528342923E1  -7.758644603260200E1   4.979224045107166E1  
                        -7.394124981337225E1   1.775521457032174E1  -7.858592268332016E1   2.593941494970965E1  -3.864532630454556E-1  -6.098335518591943E1  
                        
 6.900000000000000E6    -1.980903713155844E1   4.128158938258380E1  -4.031926780817747E-1  -8.502163128068540E1  -7.404547921123864E1   1.377620103725055E1  
                        -4.703363637447559E-1  -8.455441026091705E1  -1.979324078670359E1   3.685247047256121  -7.367812696489987E1   3.249348282652280E1  
                        -7.656470039640638E1   8.826654764138608  -7.517482223325078E1   2.359911515604727E1  -4.446045519397429E-1  -6.354968180684723E1  
                        
 7.195000000000000E6    -1.989009696265497E1   3.597806899531317E1  -4.319487546213497E-1  -8.869822747609923E1  -7.151040732620569E1   2.545516308944666  
                        -4.878454939194575E-1  -8.819757584870069E1  -1.990032303394951E1  -2.900982894089913  -7.312150961764078E1   2.392029835295389E1  
                        -7.318484106129657E1   3.035555599753339E1  -7.649564636271037E1   3.545744358675258E1  -4.828302079555668E-1  -6.622683844670178E1  
                        
 7.490000000000000E6    -1.998947047485322E1   3.098280037143131E1  -4.515220328342606E-1  -9.233511785028404E1  -7.216994698779097E1  -2.545875851177891  
                        -5.046082944422686E-1  -9.181388233217379E1  -2.001985168787678E1  -9.222192240775232  -7.408206435903004E1   4.285365266434923E1  
                        -7.228657726307876E1   1.041249383566780E1  -7.479014402235481E1   3.413312907646383E1  -5.160310481218362E-1  -6.889589305406324E1  
                        
 7.785000000000000E6    -1.995258219911417E1   2.565628280141283E1  -6.469831423028375E-1  -9.547514088690731E1  -7.137247431811187E1  -1.201508886291344  
                        -6.204705739039067E-1  -9.568168713495838E1  -2.044347616414782E1  -1.602899946004645E1  -7.314708042133172E1   3.560406676976090E1  
                        -7.427121867568559E1   2.721789017989847E1  -7.402748039315051E1   3.360947448109575E1  -5.200327264843240E-1  -7.132952119086897E1  
                        
 8.080000000000000E6    -2.020411162894542E1   2.121281092071227E1  -4.945106824229048E-1  -9.947647765498721E1  -7.410216069921550E1   1.178427897175552E1  
                        -5.362059508089768E-1  -9.891883786073464E1  -2.023865488526973E1  -2.179242722471448E1  -7.586771269071508E1   3.233259997591620E1  
                        -7.471912570308035E1   1.412210907889180E1  -7.352251847817168E1   3.197269884755995E1  -5.819325874884233E-1  -7.392109391273765E1  
                        
 8.375000000000000E6    -2.028031940820467E1   1.652184645831525E1  -5.160892817035124E-1  -1.030508876133687E2  -7.044423454445861E1  -1.017933264636459  
                        -5.577585050366420E-1  -1.025381117911229E2  -2.037830689988776E1  -2.806898131952018E1  -7.019354881655737E1   2.399924508546408E1  
                        -7.670306558630725E1  -2.927600543323351  -7.262846268236127E1   1.531196265868290E1  -6.095356475221977E-1  -7.651967001046712E1  
                        
 8.670000000000000E6    -2.036787180496758E1   1.197272887200261E1  -5.362598740244822E-1  -1.066024967579038E2  -7.402057234485328E1   9.669145001737805  
                        -5.708810283423060E-1  -1.060804411165909E2  -2.051258389319179E1  -3.417078132761165E1  -7.205169579264873E1   7.407622187195304  
                        -7.102036908285680E1   4.364154775702745  -7.066319834686441E1   1.080100001815416E1  -6.333159654415148E-1  -7.905635023222442E1  
                        
 8.965000000000000E6    -2.045348927441979E1   7.529557395295726  -5.564882300214760E-1  -1.100428775024098E2  -7.466305518795991E1  -1.588503821711707E1  
                        -5.877023057315891E-1  -1.095468946413581E2  -2.064049359696416E1  -4.003307764715859E1  -7.364101279831529E1  -2.600443417361608  
                        -7.299780092500168E1   8.514182106376595E-1  -7.348024477161881E1   1.634376773771724E1  -6.523656901399059E-1  -8.145536281610983E1  
                        
 9.260000000000000E6    -2.051316588391455E1   3.118121885296193  -5.784156264060715E-1  -1.136485931454024E2  -7.220317599604611E1  -1.635782276740443E1  
                        -6.093545280303691E-1  -1.131288256292937E2  -2.078493660884916E1  -4.617061167673427E1  -7.056596153151021E1   1.254241255195632E1  
                        -7.370775683825536E1  -4.328182423993981  -7.161577024009159E1   9.055413486781713  -6.752357183825912E-1  -8.399973054982659E1  
                        
 9.555000000000000E6    -2.056565148752954E1  -1.270432434826943  -6.005505258780852E-1  -1.171634558531536E2  -7.227620929698044E1  -1.028766841845815E1  
                        -6.269044561601909E-1  -1.166675155856124E2  -2.092426017134173E1  -5.229917102681856E1  -7.261515736851396E1   2.268035299432510E1  
                        -7.031366508581344E1  -2.229378126678295E1  -6.949876431955282E1   2.209865257017112E1  -6.911009613610970E-1  -8.649160696883359E1  
                        
 9.850000000000000E6    -2.063010492923226E1  -5.597393571295577  -6.155399649887949E-1  -1.206244891411268E2  -7.073303325419538E1  -1.735409069474429E1  
                        -6.409198364134030E-1  -1.201493778925539E2  -2.105076769729083E1  -5.824429526287534E1  -7.082488013571356E1  -1.304614174025681E1  
                        -7.328337862088547E1  -1.336949284427284E1  -7.250513633909090E1   1.721226320343512  -7.066104363168706E-1  -8.891406499648659E1  
                        
 1.014500000000000E7    -2.065570903309399E1  -9.880064077525011  -6.315919767773455E-1  -1.239215640093115E2  -6.967323968303083E1  -1.491185216746999E1  
                        -6.593984186411167E-1  -1.232639886495461E2  -2.120263014423445E1  -6.435801382234453E1  -7.195029944014692E1   2.683217190776897  
                        -7.130642566412791E1  -9.528038909960223  -7.156916400194258E1  -8.519418613107749  -7.287918760558877E-1  -9.096238684093699E1  
                        
 1.044000000000000E7    -2.070879315412331E1  -1.443356484236702E1  -6.674110876635878E-1  -1.283105429703740E2  -7.164176420033677E1  -2.639027707706870E1  
                        -6.691543862129431E-1  -1.285224146767026E2  -2.129101179237946E1  -7.040332177581591E1  -7.023991465555437E1  -3.175795576434429  
                        -7.173467610437321E1  -3.047182619931600E1  -7.062148224201779E1  -8.653721014375753  -7.031195261765405E-1  -9.548952972204893E1  
                        
 1.073500000000000E7    -2.073223853463307E1  -1.883458235974040E1  -6.818738613242193E-1  -1.313788116829757E2  -7.172041389713321E1  -3.667572844666763E1  
                        -6.850474286681730E-1  -1.312177311267969E2  -2.143593966720651E1  -7.671193119808908E1  -6.989662635311575E1   8.432485118615811E-1  
                        -6.969959715155824E1  -2.652025058860509E1  -7.001584031686299E1  -6.460463574769713  -7.299203275357130E-1  -9.709183813502339E1  
                        
 1.103000000000000E7    -2.074086183411855E1  -2.328708916090141E1  -6.901624690484742E-1  -1.344380523980507E2  -7.247922121062830E1  -4.076200754468439E1  
                        -7.033307866429086E-1  -1.339898075830074E2  -2.155640499895903E1  -8.312552164992104E1  -6.886246245927976E1  -1.167639479184966E1  
                        -6.933877755982610E1  -3.224330292066657E1  -6.837250035008970E1  -1.747264706859923  -7.451108889202844E-1  -9.879104204185421E1  
                        
 1.132500000000000E7    -2.073820344970126E1  -2.779280602769224E1  -7.067940889013588E-1  -1.379301013859669E2  -7.015940649960355E1  -4.848987696475787E1  
                        -7.213589718951158E-1  -1.374284456628627E2  -2.167615528722677E1  -8.973673015225926E1  -6.939728735336655E1  -1.584231719499134E1  
                        -7.004947354338565E1  -3.317990438803017E1  -6.798417357514715E1   1.319162478569674  -7.512856330024079E-1  -1.012716773691142E2  
                        
 1.162000000000000E7    -2.075303745578131E1  -3.244598284316979E1  -7.249397232244181E-1  -1.412931310072562E2  -7.036140369749653E1  -4.753087369251005E1  
                        -7.327326439744296E-1  -1.408851849112991E2  -2.176614401534343E1  -9.641242445162163E1  -7.055692496738018E1  -1.430671652551260E1  
                        -6.856391844455237E1  -3.971853109010308E1  -6.905390225242708E1  -1.221240178181117E1  -7.647084954582051E-1  -1.037164647189619E2  
                        
 1.191500000000000E7    -2.074553509050217E1  -3.714504758228618E1  -7.345440603625834E-1  -1.446957090094554E2  -7.079880826017379E1  -4.899113017909173E1  
                        -7.376676434840886E-1  -1.443218185395606E2  -2.185591084192580E1  -1.030399119616630E2  -6.907243565017873E1  -1.616307861592467E1  
                        -6.930061732676873E1  -2.975127432987564E1  -7.023325842464709E1  -1.912185087469857E1  -7.613599540351643E-1  -1.061354865999778E2  
                        
 1.221000000000000E7    -2.073137064879505E1  -4.181686871936166E1  -7.493500727760241E-1  -1.481156528645956E2  -7.019169939643508E1  -4.057792453697896E1  
                        -7.584430524064082E-1  -1.477227321495388E2  -2.194296961502712E1  -1.101719551679257E2  -6.985482466644342E1  -1.677884114908904E1  
                        -6.720282271162709E1  -2.876724166173287E1  -6.831069496926588E1  -1.168972509873835E1  -7.700879176050364E-1  -1.085739379898765E2  
                        
 1.250500000000000E7    -2.070218070555323E1  -4.674617303291694E1  -7.684878141481337E-1  -1.514936019453955E2  -7.031225604017322E1  -5.210075206814981E1  
