#  HZ   S   DB   R     50.00 
! Rohde & Schwarz ZVT8 8Ports - Version 4.11 - 1300.0000k08 SN: 100242
! Date: 2024-03-13 13:29:54
! Measurements: S11 S12 S13 S21 S22 S23 S31 S32 S33 
! 
 1.000000000000000E6    -2.859737215407264E1  -1.564370275144961E2  -4.698731789505196E-2  -1.291973808303437E1  -1.044773604596438E2   8.489574651720456E1  
                        -1.974961931317077E-1  -1.260457201339969E1  -2.404934704110896E1  -1.647153058729564E2  -1.028218572199644E2   5.157463619972479E1  
                        -9.749913214775150E1   8.792941910019309E1  -1.008092263343784E2   7.608489544150604E1  -5.580684378773321E-3  -9.104610706922127  
                        
 1.295000000000000E6    -2.209190632714092E1  -1.761126531549085E2  -5.698598729169564E-2  -1.652486432200076E1  -1.001212686901088E2   6.231753144108667E1  
                        -1.850912085556270E-1  -1.626638631555178E1  -2.299896403864294E1   1.749089615480580E2  -9.878683786814830E1   7.989000112264723E1  
                        -1.012586937335575E2   8.608361318237914E1  -1.033491555812601E2   6.407635960124058E1  -4.433334521114647E-2  -1.132897091309904E1  
                        
 1.590000000000000E6    -2.128862893485551E1   1.705135129445240E2  -6.566321558632084E-2  -2.009061877275019E1  -9.837084021903124E1   7.065675206516832E1  
                        -1.922806120698506E-1  -1.982294069284686E1  -2.199232660121998E1   1.597296856430947E2  -9.984577731065333E1   8.866322910022774E1  
                        -9.546333240005860E1   6.964189121278776E1  -9.663162974870002E1   7.750002280570962E1  -2.328078454760168E-2  -1.391616064448621E1  
                        
 1.885000000000000E6    -2.053214056148982E1   1.604625356898161E2  -7.702050964303310E-2  -2.369606710087753E1  -9.739435070744439E1   5.128265476599969E1  
                        -2.128756065066149E-1  -2.335556646581549E1  -2.115953533558673E1   1.483266229790264E2  -9.824991886442997E1   5.148992953577060E1  
                        -9.703132292601238E1   6.323331187395918E1  -9.819651864799855E1   9.863952507054873E1  -3.548530128897232E-3  -1.699448510127780E1  
                        
 2.180000000000000E6    -2.002354689385398E1   1.509688170265233E2  -1.044045582030602E-1  -2.725881875926667E1  -8.576637587311470E1   3.803788069521832E1  
                        -2.378632376145772E-1  -2.686029030007261E1  -2.065435163579454E1   1.365257646935759E2  -9.134591913864882E1  -6.994498418350339E1  
                        -8.350861162349419E1   1.488139214073376E2  -8.793968750334950E1   1.486774445527069E1  -1.135529768364578E-2  -1.979281865487364E1  
                        
 2.475000000000000E6    -1.976525142157993E1   1.407154259368266E2  -1.139079780820497E-1  -3.078138608020512E1  -8.865039554658004E1   2.153337044272536E1  
                        -2.508861530644242E-1  -3.048109892327640E1  -2.026289322667212E1   1.243026790780923E2  -9.200525684520196E1   2.157290472031797E1  
                        -8.549416117688833E1  -1.577822574951292E2  -8.816697026550155E1   1.317880526389570E2  -2.027105988780004E-2  -2.242522410895884E1  
                        
 2.770000000000000E6    -1.954220393603134E1   1.318206352881830E2  -1.413355877650861E-1  -3.443577217049761E1  -8.249851071774295E1   5.747048707166039E1  
                        -2.658077603116830E-1  -3.405232021500898E1  -1.999915348704912E1   1.137235756749056E2  -8.450360549096209E1   1.337130099935507E2  
                        -8.878233758209682E1   2.728436945585893E1  -9.062417793950691E1   1.526848726320778E2  -3.777578562390831E-2  -2.519909668858089E1  
                        
 3.065000000000000E6    -1.945197765920937E1   1.238182242433967E2  -1.618960404715606E-1  -3.804591126844600E1  -8.656167856836423E1   2.926289990038421E1  
                        -2.841647692284095E-1  -3.764206940491850E1  -1.985515800666779E1   1.041460627713869E2  -9.768321275588009E1  -1.505318231739789E2  
                        -8.052172714092613E1   1.159994561283499E2  -9.177580394817353E1  -1.088526621606130E1  -6.015780984531996E-2  -2.806639707245746E1  
                        
 3.360000000000000E6    -1.931934397861190E1   1.156304947598940E2  -1.741606146402054E-1  -4.160413681301000E1  -9.214050199613175E1   6.299232542959100E1  
                        -2.929538249910200E-1  -4.123584606293040E1  -1.966753682989190E1   9.413181857060546E1  -9.635342745729892E1  -2.539501682740507E1  
                        -8.490995534516364E1   1.653199063717011E2  -8.969836772889781E1  -7.525606766934067E1  -7.199044038900901E-2  -3.067038654122758E1  
                        
 3.655000000000000E6    -1.927582664242948E1   1.082509039487241E2  -2.040349122488684E-1  -4.517275993765065E1  -8.199716858609919E1   5.383504658447360E1  
                        -3.095620759640249E-1  -4.485141421390995E1  -1.960515897509338E1   8.491943407431631E1  -8.344770477888469E1   7.344166011250287E1  
                        -8.563909413297878E1  -1.798446896690422E2  -8.214661536397230E1   7.157845089606865E1  -1.003137643794420E-1  -3.339997848564876E1  
                        
 3.950000000000000E6    -1.927118859956294E1   1.012759677244155E2  -2.181386730312971E-1  -4.884233381597152E1  -8.800758820713239E1   4.134350314418531E1  
                        -3.268993664249278E-1  -4.842344800654006E1  -1.957583519639226E1   7.656939507223410E1  -8.715441616651644E1  -1.751523702128542E1  
                        -8.812528636938370E1   1.137653197228161E2  -9.065709388293922E1   5.724516270809235E1  -1.150484056637184E-1  -3.617306048703618E1  
                        
 4.245000000000000E6    -1.926459914577427E1   9.421360436569519E1  -2.304832662494599E-1  -5.241072055593352E1  -7.946765101534574E1   6.618233935875594E1  
                        -3.437431370387169E-1  -5.207201937186462E1  -1.952175177248795E1   6.826589698440738E1  -8.308109445500315E1   1.140105971472029E1  
                        -8.257609556997876E1   7.653798220562943E1  -8.820810630562670E1   1.487189200904941E2  -1.357916285110431E-1  -3.886344832114511E1  
                        
 4.540000000000000E6    -1.928719440178283E1   8.802853631153424E1  -2.460737096562786E-1  -5.603767982879791E1  -8.501403316472627E1   3.653273104372212E1  
                        -3.503346501951926E-1  -5.565186859568389E1  -1.950753333682528E1   6.041101517894254E1  -8.396234352843858E1   2.082049299885753E1  
                        -8.630645245543589E1  -2.460078616435464  -8.985985040885815E1   2.602060741590766E1  -1.520032917729864E-1  -4.157664436348517E1  
                        
 4.835000000000000E6    -1.932496087658313E1   8.173324603168285E1  -2.704110741001916E-1  -5.967286014320960E1  -8.784066175294637E1   4.146895226106671E1  
                        -3.627859414280624E-1  -5.926558946253760E1  -1.950512530132148E1   5.275553828930285E1  -8.408710940553273E1   8.811899931767553E1  
                        -8.454751508274946E1   4.422053014528933E1  -8.053575175517891E1   3.080306961674206E1  -1.792871014863081E-1  -4.440965312987085E1  
                        
 5.130000000000000E6    -1.933833133759389E1   7.525122460505230E1  -2.892093061818380E-1  -6.330813406106708E1  -8.370662417225012E1   7.263320420616280  
                        -3.779922284083760E-1  -6.290649674384669E1  -1.951885652065628E1   4.533290371431662E1  -7.885110851122072E1   8.348762036318627E-1  
                        -8.707475242796123E1   1.240612149041882E1  -8.772707998301200E1   7.377406827335877E1  -2.067312667395615E-1  -4.722796875499604E1  
                        
 5.425000000000000E6    -1.938178849266735E1   6.950523821394489E1  -3.014751498021349E-1  -6.692593259363498E1  -8.641113544123695E1   1.361175588850096  
                        -3.870781658212147E-1  -6.654245660818346E1  -1.952991203546275E1   3.807196407825553E1  -9.181157829595685E1  -5.815506570283750  
                        -8.264329218179788E1   4.576691339802994  -8.103953845134281E1   3.935526690272999E1  -2.244687991162290E-1  -4.999363598837036E1  
                        
 5.720000000000000E6    -1.945745285907654E1   6.363961583727905E1  -3.226257781020470E-1  -7.056631892153924E1  -8.762894773931173E1  -2.889146985804351E1  
                        -4.056808559142894E-1  -7.013975340540586E1  -1.956449401405061E1   3.092029332213258E1  -9.002473938072109E1   2.350379113044066E1  
                        -8.198547909111007E1   4.276798747843667E1  -8.433494775906794E1   6.156027101377897E1  -2.690093632490420E-1  -5.272955217581243E1  
                        
 6.015000000000000E6    -1.953480527168573E1   5.768718998718553E1  -3.535257506506755E-1  -7.420990039743721E1  -8.287050098622373E1   3.083776923278968E1  
                        -4.281347545848301E-1  -7.371774634192154E1  -1.960177190380740E1   2.390641071116960E1  -8.525875613425866E1  -5.965591040813351E1  
                        -8.531283989098374E1   2.670281507628025  -9.005037558521538E1  -1.377112764602078E2  -3.254182893768158E-1  -5.545018619174057E1  
                        
 6.310000000000000E6    -1.958578521851819E1   5.199849363064288E1  -3.628149857030880E-1  -7.784673922211107E1  -8.416534758570656E1   5.379631002106255E1  
                        -4.353909000172849E-1  -7.739472219380691E1  -1.965093736624105E1   1.703706686806828E1  -8.816012361786406E1  -9.672827102205913E1  
                        -8.743299126287748E1  -1.299904721749805E1  -8.087424304582186E1  -3.436185381111397  -3.505696352883566E-1  -5.823935305366251E1  
                        
 6.605000000000000E6    -1.969103121127631E1   4.669658638634453E1  -3.857089307990313E-1  -8.149743557867733E1  -8.863471114950218E1  -2.596249712505552E-1  
                        -4.518852931772505E-1  -8.099586623879216E1  -1.973799185636457E1   1.028467593731569E1  -8.252382128467518E1   2.786063383342259E1  
                        -8.272504380046783E1  -1.025198738315385E2  -8.221469815419155E1   3.324602532818904E1  -3.875899345832001E-1  -6.092765520303412E1  
                        
 6.900000000000000E6    -1.980848544373019E1   4.126274934778608E1  -4.175872589604858E-1  -8.515406315456139E1  -8.459784145625198E1   4.363579299175231E1  
                        -4.718912459322848E-1  -8.455319198033877E1  -1.980875884550270E1   3.570877196514880  -8.717452995538598E1   6.644207926211438E1  
                        -8.338482234782978E1   2.983047307755579E1  -8.528739737405930E1   4.573596865875965E1  -4.412503633281931E-1  -6.349963010177053E1  
                        
 7.195000000000000E6    -1.989409292840674E1   3.599000276345642E1  -4.303883722729033E-1  -8.869582026334651E1  -8.195734303893285E1  -5.618706953404755  
                        -4.863645832244813E-1  -8.818588796301924E1  -1.989753033337054E1  -2.867724187779670  -8.138615265664544E1  -4.619364427298839E1  
                        -8.046446605963260E1   7.825912817944479E1  -8.048361769847936E1   1.452158502834483E1  -4.838526301957031E-1  -6.617622337940912E1  
                        
 7.490000000000000E6    -1.999611353162721E1   3.101853336862884E1  -4.514395076317673E-1  -9.233610665414520E1  -8.623048255100495E1   7.014116707665129E1  
                        -5.048703997222875E-1  -9.181348793325509E1  -2.002601818701265E1  -9.291722624661418  -9.182614982478792E1   3.853274236346137E1  
                        -8.617266110815612E1   6.508206755248060E1  -8.063217979294834E1   4.018584061781949E1  -5.155316662811648E-1  -6.883878929577737E1  
                        
 7.785000000000000E6    -1.994667201586780E1   2.566724696870581E1  -6.442476742447034E-1  -9.562042767129159E1  -8.050981610470966E1   5.201452616067498E1  
                        -6.249722374222204E-1  -9.575901263938096E1  -2.043254864626556E1  -1.622760443406627E1  -8.286173353606323E1   8.113882886105291E1  
                        -7.710126393983497E1  -8.101157382890877  -8.267071579466817E1   1.834272763048348E1  -5.244816602242355E-1  -7.128014293409653E1  
                        
 8.080000000000000E6    -2.019782188070679E1   2.124274035945188E1  -4.934700025546691E-1  -9.947994761715509E1  -7.868372369011100E1   2.454532575461873E1  
                        -5.341504751453801E-1  -9.892805961018077E1  -2.023435029664431E1  -2.182012859773350E1  -8.329120088285868E1   3.877958499735692E1  
                        -8.512622330146147E1   2.164336857960684E1  -8.134451600565664E1  -6.113629558100638  -5.796434947568468E-1  -7.385160541777881E1  
                        
 8.375000000000000E6    -2.027978606425218E1   1.659348826614178E1  -5.127948962407062E-1  -1.030584805089519E2  -8.154118182295333E1   1.814359801024408E1  
                        -5.525249921113008E-1  -1.025304441354216E2  -2.037670348025331E1  -2.803208675645583E1  -8.422850520521767E1   1.124227927440252E1  
                        -8.622372268229138E1   3.599742034476935E1  -7.732342228164879E1   1.460894988283738E1  -6.108706269595708E-1  -7.646677919454625E1  
                        
 8.670000000000000E6    -2.037175753849686E1   1.197543622963065E1  -5.350989677087705E-1  -1.066005433993500E2  -8.751714745859302E1  -2.918550880500141E1  
                        -5.708812561977310E-1  -1.060848331078523E2  -2.051495065401863E1  -3.412212856234775E1  -7.966033416704714E1   1.646360798133773E1  
                        -8.330371897891682E1  -5.501706442578544E1  -9.106309066213936E1  -3.332580996534574E1  -6.337395864070975E-1  -7.898126998805758E1  
                        
 8.965000000000000E6    -2.045508970533764E1   7.536667560175726  -5.522131780144103E-1  -1.100444675356724E2  -8.008131627840602E1   4.715522277064745E1  
                        -5.868870432090997E-1  -1.095378824763886E2  -2.063270421371609E1  -4.001327037976299E1  -8.288662276472131E1   1.459418534194612E1  
                        -7.855561556112080E1   2.489546940285353E1  -8.349141874680917E1   4.070732654879765E1  -6.504444332471782E-1  -8.137687907715318E1  
                        
 9.260000000000000E6    -2.050917128390370E1   3.144079026707293  -5.775540174292826E-1  -1.136378569708165E2  -8.342798774719236E1   4.561769505368380E1  
                        -6.072766766035362E-1  -1.131313451497049E2  -2.077499234933957E1  -4.620400807639886E1  -7.924463377613515E1  -1.490194570933677E1  
                        -7.804340988181819E1  -2.357565141670848E1  -8.198650094003564E1  -2.804837193716651E1  -6.755282928625758E-1  -8.393059687618722E1  
                        
 9.555000000000000E6    -2.056614236415961E1  -1.301193636000652  -5.969209580290046E-1  -1.171513300165642E2  -7.953185087783830E1   2.245436348589071E-1  
                        -6.264912650377941E-1  -1.166701207092087E2  -2.092260780436723E1  -5.226402363979384E1  -7.539261782963567E1  -2.427829621345337E1  
                        -8.186339502205399E1  -1.296754444925989E1  -8.578175719841602E1   3.122480497166495E1  -6.925871439598903E-1  -8.641945148474756E1  
                        
 9.850000000000000E6    -2.062246812396899E1  -5.656252998846894  -6.163549729433785E-1  -1.206194513882654E2  -7.450275306862696E1   1.488281109533176E1  
                        -6.425492362371971E-1  -1.201442181462881E2  -2.104284388693345E1  -5.823757239563120E1  -7.637763111842156E1  -1.178071612371836E1  
                        -7.815855985131962E1  -3.053923860470262E1  -1.140561802782129E2   3.488419619606414E1  -7.046579778074564E-1  -8.885538436137706E1  
                        
 1.014500000000000E7    -2.065528340428365E1  -9.848002173174605  -6.322357385680819E-1  -1.238974318804319E2  -7.769467616867507E1  -2.810836512810837E1  
                        -6.601473589487776E-1  -1.232816988998335E2  -2.120187320874343E1  -6.433709628034055E1  -7.877484322479074E1  -2.104699010211848E1  
                        -7.717277672685086E1  -8.587059173755296  -7.626255209164226E1  -1.538845169389192E1  -7.263414456172443E-1  -9.092108976566561E1  
                        
 1.044000000000000E7    -2.067810709320997E1  -1.433593635819517E1  -6.378859290182448E-1  -1.284063949806358E2  -8.050491395952096E1  -1.632339395908113E1  
                        -6.823547098911126E-1  -1.285888697684822E2  -2.129006796627824E1  -7.027312978626352E1  -7.961354604930661E1  -9.594201163865238  
                        -7.970317850629125E1  -3.235092864763092E1  -7.925463859883270E1  -1.870779988577892E1  -7.059398376833550E-1  -9.532964629078029E1  
                        
 1.073500000000000E7    -2.071220614766582E1  -1.878819358573314E1  -6.657629000071543E-1  -1.313473787393025E2  -8.300876324781704E1  -3.257044092658435E1  
                        -6.962515552481302E-1  -1.312929068823381E2  -2.144727902786595E1  -7.676603398802406E1  -8.514807835266214E1   1.967985604011206E1  
                        -8.417097856498717E1  -2.503084574902185E1  -7.974811102260959E1   3.184399689095233E1  -7.280488208435021E-1  -9.702727882280446E1  
                        
 1.103000000000000E7    -2.073434862233973E1  -2.325909421804834E1  -6.877054179657640E-1  -1.344309942794419E2  -7.788858684240088E1  -5.770854124017198E1  
                        -7.035793560466545E-1  -1.339847816292129E2  -2.155585409626240E1  -8.321230472724815E1  -7.768960426411515E1  -4.187866171453608E-1  
                        -7.682971098061839E1  -1.253659112990510E1  -7.677653439049163E1  -6.726100689297475E1  -7.458385464522007E-1  -9.870649423836676E1  
                        
 1.132500000000000E7    -2.073729424293892E1  -2.783542842120606E1  -7.180155306766217E-1  -1.378696977280923E2  -8.155277565942728E1  -3.646079400049721E1  
                        -7.181705129310767E-1  -1.374484097395056E2  -2.166200810742997E1  -8.968101581039706E1  -7.664188851454047E1  -1.934580694477440E1  
                        -7.842765970646930E1  -2.877732808342665E1  -8.075127991197412E1  -2.392728834839913E1  -7.476815210730935E-1  -1.011659362237730E2  
                        
 1.162000000000000E7    -2.074432140079040E1  -3.241192729652136E1  -7.244261072288425E-1  -1.412992564096782E2  -7.799488762510713E1  -3.004179600560955E1  
                        -7.335265479575088E-1  -1.408904716446137E2  -2.176844715243800E1  -9.640156748565006E1  -8.072820436249207E1  -2.739832906435549E1  
                        -8.045343357022964E1  -4.676003476280066E1  -7.852148848016698E1  -3.892026478884431E1  -7.639550215053825E-1  -1.036242818940688E2  
                        
 1.191500000000000E7    -2.073746521132005E1  -3.715697887659660E1  -7.325700717902071E-1  -1.446925995989641E2  -7.881185876009654E1  -1.295561151188043E1  
                        -7.363773187937476E-1  -1.443189325210870E2  -2.184502165915784E1  -1.030849019494509E2  -7.896008038262772E1  -1.923829560973457E1  
                        -8.064963229418369E1  -2.802809245725005E1  -8.242696980742906E1  -4.507826487038408E1  -7.600752671521563E-1  -1.060490308243202E2  
                        
 1.221000000000000E7    -2.072501173865629E1  -4.180263548590924E1  -7.521532100479784E-1  -1.481116327721252E2  -7.654075510354991E1  -4.408727766105307E1  
                        -7.563065053967630E-1  -1.477072203201989E2  -2.194733313264109E1  -1.101289993823898E2  -7.729614192043447E1  -5.915538628683221E1  
                        -7.830393894646412E1  -4.803505789449692E1  -7.686265810662096E1  -8.735815225090798  -7.718638984650449E-1  -1.084841276078417E2  
                        
 1.250500000000000E7    -2.069830862961142E1  -4.673557954595590E1  -7.673639757573966E-1  -1.514996356659333E2  -7.993678197176261E1  -2.616229766526709E1  
