#  HZ   S   DB   R     50.00 
! Rohde & Schwarz ZVT8 8Ports - Version 4.11 - 1300.0000k08 SN: 100242
! Date: 2023-12-01 11:24:01
! Measurements: S11 S12 S13 S21 S22 S23 S31 S32 S33 
! 
 5.000000000000000E6    -6.747498325092056E1   6.767922352493906  -1.247477733484843E-2  -2.211480264396307  -7.043236903410087E1   5.032460352056489  
                        -1.619666857962612E-2  -2.232060523966536  -6.404015521844750E1  -8.810600189480199E1  -9.406262305384622E1  -1.638521434380673E2  
                        -7.112257201741581E1   5.999901118488078  -9.561871304566823E1   9.803044591877129E1  -2.878151023723438E1   1.110926965143211E2  
                        
 5.250000000000000E6    -6.154811588255821E1  -1.233920652184647E1  -1.642084972527282E-2  -2.315805213629882  -7.027940029310045E1   3.429614456982666  
                        -1.556848459873540E-2  -2.313349668597430  -5.600017117078894E1  -7.881190814529597E1  -9.394350221844567E1  -1.032731569626021E2  
                        -7.022898531698439E1   1.117754127505836E1  -9.143195177016982E1   1.006915199906529E2  -2.930065647430635E1   1.105505786433168E2  
                        
 5.500000000000000E6    -5.884509310005693E1  -5.681428117409617E1  -1.600877294988867E-2  -2.432735201068157  -6.935782414042649E1   7.176065467295176  
                        -1.632841718188698E-2  -2.420151654362614  -5.743444185850906E1  -6.257373157871027E1  -9.639632020043194E1   5.884064542766072E1  
                        -7.076220018347223E1   1.080906347889584E1  -9.136351006805045E1  -4.100675040530674  -2.977835339748861E1   1.097085867301368E2  
                        
 5.750000000000000E6    -6.846649046618549E1  -2.794504228608022E1  -1.598269798317673E-2  -2.516666881501756  -7.020370102198447E1   1.146805073465048E1  
                        -1.618619334594545E-2  -2.526857240465704  -5.984814764846208E1  -6.989629097303623E1  -9.034870032412759E1   1.252658445706445E2  
                        -7.065676839149522E1   8.860467657409004  -9.778097056445877E1  -5.527197625272619E1  -3.022951973040338E1   1.089021286001363E2  
                        
 6.000000000000000E6    -6.134717939917493E1  -4.712591056927773E1  -1.819253347106299E-2  -2.636571953275894  -6.976324083444700E1   4.769039694293864  
                        -1.672341916037059E-2  -2.642884724918933  -6.075597655175812E1  -3.565179695113551E1  -1.042698847935566E2  -1.709348005770248E2  
                        -7.026168003393130E1   7.481142663696017  -9.776409829532878E1  -7.692572047437852E1  -3.065847332806140E1   1.082934071888552E2  
                        
 6.250000000000000E6    -6.099397298495369E1  -8.482599105548545E1  -1.389632889785442E-2  -2.727093812742246  -7.036281769401374E1   4.535611704115574  
                        -1.645242200529537E-2  -2.722053906838274  -6.512720272180087E1  -9.441697664083598E1  -9.703371613196953E1   1.619115899412723E2  
                        -6.938685385568191E1   9.497885275200531  -9.462565043455258E1   1.942722667031945E1  -3.104012175714266E1   1.078142711564757E2  
                        
 6.500000000000000E6    -6.528640927813173E1  -8.993368447013771E1  -1.741075564578581E-2  -2.840158195412463  -6.979193741869233E1   6.739449210050738  
                        -1.640145347614935E-2  -2.835689396678132  -5.917612463408755E1  -5.077971171104073E1  -9.230741798217684E1  -1.482128805259736E2  
                        -7.021695103337531E1   8.759231676616201  -9.179829126613733E1  -1.283737567463863  -3.144129268302634E1   1.072161211295086E2  
                        
 6.750000000000000E6    -5.743623842591730E1  -3.481776795554209E1  -1.656206092217025E-2  -2.953102161447312  -6.996749119051178E1  -9.826645876724803E-1  
                        -1.891098038216260E-2  -2.936194156230999  -5.694410217926056E1  -5.080978890980394E1  -1.024506060675333E2  -7.289956847963663E1  
                        -6.995236591553292E1   5.045187547649316  -8.866554229310560E1   1.635432125811676E1  -3.183807672258176E1   1.070378602723590E2  
                        
 7.000000000000000E6    -6.211585024897580E1  -1.492324000614173E2  -1.710620145633793E-2  -3.040699413726024  -7.027515863251324E1   4.237831669801562  
                        -1.671851332645316E-2  -3.030382421634138  -5.835986019247597E1  -9.126680274761949E1  -9.471543164151858E1  -1.654666202105113E2  
                        -7.033852363853924E1   3.443849401583660  -9.331592339334289E1  -1.554934235325531E2  -3.215221579276654E1   1.061355161456955E2  
                        
 7.250000000000000E6    -5.985817594782994E1  -6.059388113335943E1  -1.953475291827304E-2  -3.134845188973270  -7.008177860018562E1   5.210118452507027  
                        -1.423106929241381E-2  -3.137791796849092  -6.164238483403069E1  -6.089591552154131E1  -9.456922580969290E1   6.680560713686450E1  
                        -6.962615211590291E1  -2.253893314168467E-1  -9.447470320961871E1  -1.493511707912743E2  -3.250046064606949E1   1.058508824331735E2  
                        
 7.500000000000000E6    -7.097655293078347E1  -6.305907887573666  -1.945409955887990E-2  -3.250096135405520  -6.980183222468324E1   7.850536310668414  
                        -1.671542935884720E-2  -3.236329541446370  -5.616255278829413E1  -6.878817739044935E1  -9.378739459885318E1  -1.520446431364872E2  
                        -7.011726928647259E1   4.910052552263489E-1  -8.684631260434664E1   1.199114992670709E2  -3.289730601068941E1   1.054149271482157E2  
                        
 7.750000000000000E6    -5.754943264625267E1  -7.013343977440270E1  -2.225221584163622E-2  -3.340333790967462  -6.990632426526636E1   4.417669744989695  
                        -1.730621651803311E-2  -3.336662032695948  -5.842828729551867E1  -8.004109332487515E1  -9.560195433546728E1  -1.536860512931895E2  
                        -7.019546222896798E1   1.038479016834177  -9.077295110925707E1   1.491459285575497E2  -3.308538019444548E1   1.051585155877002E2  
                        
 8.000000000000000E6    -5.782611507673727E1  -1.189304550406238E2  -2.067908697092398E-2  -3.455836832225815  -6.920459684842170E1   1.263234639002518  
                        -1.494673004837385E-2  -3.422736568627534  -5.345624200980934E1  -5.255902242707387E1  -1.097500461071238E2   9.904576247864688E1  
                        -6.969584588766767E1   3.407919108233122  -8.954019208745416E1   1.450367499673729E2  -3.352776535076576E1   1.048438414753524E2  
                        
 8.250000000000000E6    -5.959243476555218E1  -4.871911546060548E1  -2.076525933823827E-2  -3.530519442467766  -6.999676008499932E1  -3.686511087291594E-1  
                        -1.906737611649817E-2  -3.544155843938867  -5.912479303473101E1  -5.960213052922580E1  -1.012157483094928E2   9.557493050340085E-1  
                        -7.050789712010035E1   5.498374410633971  -9.040835378381971E1  -1.394815003952371E2  -3.377944726408773E1   1.049485642940784E2  
                        
 8.500000000000000E6    -6.064473093101013E1  -5.947149117918237E1  -1.874291284195991E-2  -3.635663961478075  -6.941336459246521E1   1.055743567969274  
                        -1.742370078563582E-2  -3.646155901442566  -5.856512842731790E1  -6.703868781374852E1  -9.471208887077121E1   6.412153144215419E1  
                        -7.019787773046771E1   8.576912409840208E-1  -9.507278921613991E1  -1.525800823137784E2  -3.416376035244401E1   1.046647922831446E2  
                        
 8.750000000000000E6    -5.561322091932031E1  -4.359737432419420E1  -2.058021109162887E-2  -3.744924117876477  -7.086288817322799E1   2.771791637641592  
                        -1.821312034982823E-2  -3.732706858981902  -5.555198671905432E1  -6.964624615064471E1  -9.708565921189998E1  -1.779054022175329E2  
                        -7.033908869789123E1   2.983821528184154  -9.509882689839739E1   1.656908762772254E2  -3.447910134399084E1   1.041260766875715E2  
                        
 9.000000000000000E6    -6.155399343798695E1  -3.974507188706163E1  -2.046305130942781E-2  -3.853022985464158  -6.979908937790241E1   2.592959455575124  
                        -1.551378022368495E-2  -3.847694634905455  -5.583928484397215E1  -6.621527011086876E1  -8.722053581631460E1  -1.638249378380519E2  
                        -7.105444065910778E1   3.480973691700687  -9.878879803603483E1  -1.223738238472891E2  -3.476843069037695E1   1.037451623200876E2  
                        
 9.250000000000000E6    -5.933157155849063E1  -7.229810457783603E1  -1.982776107990653E-2  -3.956094210587361  -7.027010949778604E1   7.136356946508418E-1  
                        -1.807946719408148E-2  -3.942655026395289  -5.516915442682566E1  -7.244894907695826E1  -9.457555249620341E1  -1.798957759319835E2  
                        -7.095673602752970E1  -2.413105028128431  -8.825687150780560E1  -1.399600361240907E2  -3.506125330489389E1   1.035442496330479E2  
                        
 9.500000000000000E6    -5.430786308183206E1  -8.171585068861177E1  -1.978171086646123E-2  -4.051905626782846  -7.073147555171980E1  -5.312627754256162E-1  
                        -1.438297635689819E-2  -4.044463541136849  -5.791841300417735E1  -7.491344334478687E1  -9.349529568861316E1   1.574081843804696E1  
                        -7.104340327992397E1   3.662783221081525  -9.412174321526118E1   1.763401294329092E2  -3.534004367172226E1   1.031570224513117E2  
                        
 9.750000000000000E6    -5.563778769841741E1  -7.522624858240401E1  -2.324270973145687E-2  -4.163343590639889  -7.065568880557278E1  -1.393594669927186  
                        -1.604612318692931E-2  -4.159692207770833  -5.757524880965547E1  -8.478198555213611E1  -9.379792467924432E1  -7.157869986947308E1  
                        -6.968697343284600E1   4.707080451884214  -9.701431868150091E1   9.922460499756130E1  -3.558140134644823E1   1.030413513748155E2  
                        
 1.000000000000000E7    -5.361195479694366E1  -5.608257627832215E1  -2.515010650177113E-2  -4.263509015604586  -7.104256290027594E1   1.935486176373551  
                        -1.528090947093108E-2  -4.272651518966442  -6.005558384320224E1  -8.210350541344850E1  -9.358005036237999E1   9.481783856905791E1  
                        -7.088044905267250E1   2.425313820522285  -8.945291847960199E1  -1.281120214508944E2  -3.594127352595579E1   1.029065203470259E2  
                        
 1.025000000000000E7    -5.994565127956248E1  -2.869568088350251E1  -2.358300977198435E-2  -4.399621304733130  -6.977300795635946E1  -7.250402152677136E-1  
                        -1.713763004095402E-2  -4.377970545430279  -5.969110187727979E1  -7.350491644490613E1  -8.357526756614398E1  -1.696427535705010E2  
                        -7.017304175605199E1   2.035972555866885  -9.396360366459037E1  -4.808128066604145E1  -3.619410449394140E1   1.026656018245338E2  
                        
 1.050000000000000E7    -5.264589664216294E1  -7.655248473364001E1  -2.109889490208408E-2  -4.464422741590453  -6.998525287347927E1   3.106405770165995  
                        -1.860839466473086E-2  -4.462662656140872  -5.342274901025017E1  -7.822876235205156E1  -9.454176573055081E1  -1.406857526760320E2  
                        -7.053613362119701E1  -5.852007499889008E-1  -9.534379076491636E1   1.515175008483583E1  -3.648176478179874E1   1.025716878320321E2  
                        
 1.075000000000000E7    -5.913214511049615E1  -5.028601400260268E1  -2.200852831125449E-2  -4.583516672681387  -7.039219322745885E1  -3.793920147133244  
                        -2.050564312135014E-2  -4.589704058881584  -5.522255413818645E1  -7.909258486314251E1  -8.692424431042963E1   1.188897789385402E2  
                        -7.084452468874576E1   1.408557141250363E1  -9.725471921559716E1  -6.224450918928894E1  -3.681188265793207E1   1.023667720633584E2  
                        
 1.100000000000000E7    -5.699074816801115E1  -6.584280765053364E1  -2.121498989465227E-2  -4.674888060448354  -7.036819843466665E1  -3.587036986152836  
                        -2.081090857540099E-2  -4.726893846926517  -5.797384109647251E1  -5.613196934439880E1  -9.392492724026911E1   9.394843615164454E1  
                        -7.036048963486910E1   1.703367178308292  -1.027181374207630E2   8.449189739231456E1  -3.701716283956581E1   1.024512173920292E2  
                        
 1.125000000000000E7    -5.477270191674906E1  -4.126341733727831E1  -2.025296930947475E-2  -4.799057499825254  -6.975072370613729E1  -3.195763815406962  
                        -2.371599545186653E-2  -4.809659368774614  -5.315698522697859E1  -5.959434075622616E1  -9.616599150037679E1  -1.612379778700086E1  
                        -7.014498923737958E1  -5.112561970245059  -9.384961557430468E1  -1.231749329361667E2  -3.725587447058283E1   1.018847587717880E2  
                        
 1.150000000000000E7    -5.323884400125864E1  -4.603679831036961E1  -2.436600957464160E-2  -4.893212822585859  -6.976699505664872E1   1.873254152799732  
                        -2.057520167159912E-2  -4.914939934445145  -5.882810912531012E1  -7.452634617158017E1  -9.697004947407054E1  -5.396074900324746E1  
                        -6.971426738699721E1  -1.668877631434659  -9.398698126570096E1  -8.953888944320572E1  -3.759403494415998E1   1.019493677266821E2  
                        
 1.175000000000000E7    -5.806182095778377E1  -6.081648157766833E1  -2.143484913012107E-2  -5.015710361344544  -7.028453776410323E1   8.466331106959734  
                        -2.183246708818431E-2  -5.006296398746336  -5.271000364989433E1  -4.466009448520229E1  -9.923116488434827E1   1.316620871388039E2  
                        -6.942007611782698E1   3.621817072068250  -9.360284558029771E1   5.579639563475955E1  -3.782522036482253E1   1.026361046440495E2  
                        
 1.200000000000000E7    -5.313201229224771E1  -7.018873255293451E1  -2.319718204360052E-2  -5.084628432272679  -7.074842190484334E1  -3.807507867004142  
                        -2.030679309779891E-2  -5.129812663937751  -5.739082619010889E1  -8.213472022455227E1  -8.551541513638155E1  -8.842146929299088E1  
                        -6.942830375702133E1   2.856376435872701  -9.116902281997716E1  -6.328804345929330  -3.812882348982241E1   1.026653368936789E2  
                        
 1.225000000000000E7    -5.373033537353827E1  -7.007565956930452E1  -2.288886108115187E-2  -5.212665124442906  -6.949730049421900E1   3.144428955312171  
                        -2.420568848495449E-2  -5.210473154658377  -5.668005135213192E1  -6.334128362090680E1  -9.375456993279705E1  -1.773972517242415E2  
                        -7.037501757539263E1   1.587836133130204E-1  -8.702347654267454E1   6.019298093279052E1  -3.840541126180744E1   1.024156290152682E2  
                        
 1.250000000000000E7    -5.415574192130979E1  -5.302083303929739E1  -2.818896708097262E-2  -5.310066373608566  -6.965521318994908E1  -4.173316877692444  
                        -2.265925515099248E-2  -5.325361087438101  -5.928562568368861E1  -7.388472246698184E1  -8.853806822263779E1   1.241521934557426E2  
                        -6.990108993324425E1  -5.171190378425771  -1.121076534714332E2   1.700828678089181E2  -3.848174405641886E1   1.013836129417782E2  
                        
 1.275000000000000E7    -5.587083756138676E1  -9.189057461987618E1  -2.506699168557355E-2  -5.415531912329307  -6.985370909752814E1  -9.534126079309693E-1  
                        -2.522028092158508E-2  -5.419453059389667  -5.371878024137551E1  -6.858971321928793E1  -8.625391127910422E1  -1.606221734554755E2  
                        -7.018939717542706E1   8.093798312982093E-1  -9.693444181546144E1   2.154975237454204E1  -3.883169556740275E1   1.014965140542933E2  
                        
 1.300000000000000E7    -5.427945921393148E1  -5.997830342637716E1  -2.915063995585071E-2  -5.521562837068839  -6.997726269994622E1  -3.738696512404388  
                        -2.577526295486296E-2  -5.518677482037152  -5.503648081972295E1  -4.501926194969451E1  -8.984236234360738E1   1.742669471268436E2  
                        -6.971484513789794E1  -5.817597524241812  -1.027504528881341E2   1.292153741110449E2  -3.917035819379122E1   1.011513989521653E2  
                        
 1.325000000000000E7    -5.536156283333668E1  -5.269674933641436E1  -2.463936860063782E-2  -5.619031407969564  -6.984123277814713E1   2.350489409705017  
                        -2.474359954487651E-2  -5.632419472737464  -5.246008139500377E1  -6.286051885456758E1  -8.900597585840895E1  -1.727624926113903E2  
                        -7.070925597790240E1  -1.030466371245895  -9.407548025239784E1  -1.437148916619201E2  -3.936308187085584E1   1.014759413493326E2  
                        
 1.350000000000000E7    -5.337311334824812E1  -6.130889800292091E1  -2.729991737129611E-2  -5.741935238014067  -6.980885222473539E1  -5.583912343774600  
                        -2.502820649139790E-2  -5.732848512521227  -5.303881506020731E1  -4.909993665728517E1  -1.000353085458876E2  -7.869095307448619E1  
                        -7.035934230905184E1  -2.625812937644377  -9.458471587791448E1   1.377425555321640E2  -3.955976379779082E1   1.018368754904575E2  
                        
 1.375000000000000E7    -5.156990597625715E1  -5.819578584782325E1  -2.769867853185987E-2  -5.828943895957815  -6.965515639656002E1  -4.005438321842911  
                        -2.706859842542864E-2  -5.830964971923988  -5.142389733537273E1  -5.887275604292447E1  -8.698832486138886E1  -4.764137820453433E1  
                        -7.050237550562876E1  -3.618716586272873  -8.795656335213380E1   7.466821676442962E1  -3.985901314623119E1   1.026533823753801E2  
                        
 1.400000000000000E7    -5.143250461486943E1  -4.492769129220443E1  -2.932638602836002E-2  -5.933731457855101  -7.024320621857389E1  -5.695964026002930  
                        -2.430755161885525E-2  -5.944999346685413  -5.184581568605897E1  -7.081171033495805E1  -9.467119979036642E1   5.836116192599337E1  
                        -7.020566979252625E1   2.028317470184539  -8.529117127875458E1  -1.025363166676424E2  -4.015376324298081E1   1.010298501278024E2  
                        
 1.425000000000000E7    -5.119418344026052E1  -5.407625386122938E1  -3.267674562954150E-2  -6.051387161663285  -6.939099569801289E1   3.388456515586450  
                        -2.375227449145346E-2  -6.062920971455593  -5.216982569351465E1  -5.401689253678345E1  -1.065925420167842E2  -7.094516378566844E1  
                        -7.013834636592758E1   6.175650638449896  -9.047054443021914E1  -1.405071885215685E2  -4.024802889433089E1   1.021230647184147E2  
                        
 1.450000000000000E7    -5.139126634932355E1  -4.117535414176813E1  -2.939154341100311E-2  -6.164927061903849  -6.995260451373697E1  -2.459637207537941  
                        -2.461120999955899E-2  -6.141012266763979  -5.290129967900163E1  -3.737127757030363E1  -9.990662806038986E1  -4.371689683863383  
                        -6.953372893290923E1  -8.257787978042188  -1.007076180706196E2   1.494290383393253E2  -4.050979145651590E1   1.027720600426901E2  
                        
 1.475000000000000E7    -5.204551796151368E1  -5.779973904626888E1  -2.622609549180098E-2  -6.255848502616283  -6.976779076578035E1  -5.744788299174314  
                        -2.638282620370659E-2  -6.253646988371736  -5.254355169020791E1  -6.667078479952208E1  -9.529861012633926E1   1.320780348780986E1  
                        -7.027132474540113E1  -6.064025492790136  -9.736098355426748E1   4.800301870411049E1  -4.109060800672815E1   1.019646082180222E2  
                        
