#  HZ   S   DB   R     50.00 
! Rohde & Schwarz ZVT8 8Ports - Version 4.11 - 1300.0000k08 SN: 100242
! Date: 2023-12-01 11:37:59
! Measurements: S11 S21 S12 S22 
! 
 5.000000000000000E6    -4.272424941832200E1   1.997796730747774E1  -6.599217722440821E-2  -1.601752074809307E1  -6.381113146259076E-2  -1.598975754824101E1  -4.396353209495092E1   1.714732815807065E1  
 5.250000000000000E6    -4.246029655258464E1   1.506533383854176E1  -6.718118713010454E-2  -1.678233035974591E1  -6.938829799111579E-2  -1.677886523254319E1  -4.393182883688694E1   7.382209246491224  
 5.500000000000000E6    -4.301948140419160E1   9.866806197033373  -6.960368561681725E-2  -1.757658937363653E1  -6.975981083128978E-2  -1.757509374927442E1  -4.326685826376195E1   7.237103165516157  
 5.750000000000000E6    -4.251967552073754E1   1.502122953036472E1  -7.038952095622526E-2  -1.836378853608244E1  -7.077669962898742E-2  -1.833931438203880E1  -4.326226452017971E1   8.112637451583074  
 6.000000000000000E6    -4.246599825742241E1   9.358225059676157  -7.266705523219402E-2  -1.915670160246320E1  -7.471667528102007E-2  -1.913781791717046E1  -4.249708158664312E1   8.289186131046376  
 6.250000000000000E6    -4.298015333755853E1   9.409177911338890  -7.376418923353471E-2  -1.991823476897507E1  -7.230188857842153E-2  -1.991565001929586E1  -4.314226001593553E1   1.045491912538919E1  
 6.500000000000000E6    -4.264757479282504E1   1.048254474382977E1  -7.378867281385185E-2  -2.071128845461961E1  -7.650369509067639E-2  -2.070778077806990E1  -4.250733620306085E1   3.665267911963126  
 6.750000000000000E6    -4.175812444122542E1   2.212863645074805  -7.742148887617291E-2  -2.149113271036463E1  -7.859377804219701E-2  -2.151174170042640E1  -4.243858365435882E1  -9.746538893209931E-1  
 7.000000000000000E6    -4.264118540742199E1   1.104726860278280E1  -7.734872860461822E-2  -2.226995171527229E1  -7.880921889043174E-2  -2.227523249417007E1  -4.310617886318938E1   2.504455407737651  
 7.250000000000000E6    -4.191658116189571E1   1.508768103714346  -7.594603970136089E-2  -2.305463364413740E1  -8.264491493879433E-2  -2.303878493064472E1  -4.241164658640172E1   1.470393056363704  
 7.500000000000000E6    -4.141419745743204E1   5.639852833948138  -7.923468570101840E-2  -2.382871455600582E1  -8.429411314128069E-2  -2.383662804023261E1  -4.274176559674001E1  -5.074950085908776  
 7.750000000000000E6    -4.208598560145715E1  -2.758584676453193  -8.092361309134989E-2  -2.460595995138986E1  -8.749956902190460E-2  -2.460928251133794E1  -4.282969794629473E1  -2.744794257347943  
 8.000000000000000E6    -4.273908990169669E1   1.197596202376660  -7.998071693551137E-2  -2.536901898656145E1  -8.700380217799401E-2  -2.539994169174241E1  -4.191076814487757E1  -1.030439448820644E1  
 8.250000000000000E6    -4.128966852933536E1  -3.954133540189778  -8.487491856383017E-2  -2.618074913748857E1  -8.909960049518016E-2  -2.615838992854402E1  -4.201080488547164E1  -5.574040209216626  
 8.500000000000000E6    -4.144510980284259E1  -4.881785054662410  -8.416497409025404E-2  -2.695755243802330E1  -8.794871704486298E-2  -2.694883661377665E1  -4.206756729558150E1  -6.461594087413000  
 8.750000000000000E6    -4.105145834737552E1  -1.049747453714023E1  -8.683556999462971E-2  -2.772088509137396E1  -9.151524914125435E-2  -2.773534335055392E1  -4.218769004719708E1  -1.129533929608872E1  
 9.000000000000000E6    -4.089910414959479E1  -5.741035211980449  -8.501108249655212E-2  -2.851978253482350E1  -9.131904544493887E-2  -2.851533324488443E1  -4.199336641473239E1  -1.096958598941301E1  
 9.250000000000000E6    -4.145670809381601E1  -8.969313711291655  -8.679966849923178E-2  -2.929071929818834E1  -9.186888922947797E-2  -2.929413203260060E1  -4.226124335151057E1  -1.381815608160083E1  
 9.500000000000000E6    -4.178408628163162E1  -1.452360134448049E1  -8.495558710531456E-2  -3.007894796994255E1  -9.339711671809937E-2  -3.007444060974997E1  -4.203652492194059E1  -1.088284050175578E1  
 9.750000000000000E6    -4.172009501813731E1  -1.383958298899992E1  -8.640564989524893E-2  -3.086418208981449E1  -9.751167706853497E-2  -3.085415622083065E1  -4.211938298329185E1  -1.070269834354179E1  
 1.000000000000000E7    -4.100433250290220E1  -1.826353705914979E1  -8.774762680429704E-2  -3.165783197961078E1  -9.906098836478529E-2  -3.163472548919701E1  -4.165517202054527E1  -1.037322306937137E1  
 1.025000000000000E7    -4.031829424274151E1  -1.188638139048842E1  -8.950864437572548E-2  -3.244028563969463E1  -1.008695096876123E-1  -3.246108442724783E1  -4.159349107951534E1  -1.226465280030061E1  
 1.050000000000000E7    -4.166272916206895E1  -1.891631242665365E1  -9.168606413919410E-2  -3.321082290120280E1  -9.929684750995717E-2  -3.319709091871039E1  -4.224187680022742E1  -1.870503683414960E1  
 1.075000000000000E7    -4.069848073577578E1  -1.580630128536856E1  -9.613034915088825E-2  -3.401165745744208E1  -9.933984663739748E-2  -3.400116837777541E1  -4.186747589255638E1  -1.659383588076975E1  
 1.100000000000000E7    -4.086560895992008E1  -1.658800200366708E1  -9.617324054469544E-2  -3.482840718101478E1  -9.911827837501816E-2  -3.476629582070964E1  -4.101913826722145E1  -1.551487346709173E1  
 1.125000000000000E7    -4.033667310545070E1  -2.089773546628034E1  -1.002069480196341E-1  -3.557746021199834E1  -1.010622443324028E-1  -3.556274672993962E1  -4.114215023915982E1  -2.325157589555258E1  
 1.150000000000000E7    -4.004174421004487E1  -2.318594247449637E1  -9.758975293467991E-2  -3.637628454077454E1  -1.053292939357066E-1  -3.633854318621424E1  -4.119807886827869E1  -1.577724676742356E1  
 1.175000000000000E7    -4.040196786650526E1  -1.855696017772985E1  -1.000206324844270E-1  -3.714110508714924E1  -1.028566630480485E-1  -3.714294782586460E1  -4.040677178018695E1  -2.509564893306541E1  
 1.200000000000000E7    -4.083426070962373E1  -2.534954793720051E1  -9.891837361794137E-2  -3.793798238396141E1  -1.054480242243745E-1  -3.788732952677999E1  -4.128191882518638E1  -1.889838434212490E1  
 1.225000000000000E7    -4.062894324679710E1  -2.489652375743856E1  -1.035327919995374E-1  -3.870557473237442E1  -1.056478926306206E-1  -3.870107468167308E1  -4.063838140770822E1  -2.124961995912537E1  
 1.250000000000000E7    -4.009439419317116E1  -2.515412988801321E1  -1.043353779348635E-1  -3.950126576819191E1  -1.112677135213958E-1  -3.947389060559286E1  -4.087035951491499E1  -1.871503079682642E1  
 1.275000000000000E7    -4.080252113064428E1  -2.202948386303099E1  -1.059360386497026E-1  -4.027205156254779E1  -1.096602793199403E-1  -4.025500879987404E1  -4.072776777585270E1  -2.585310779807736E1  
 1.300000000000000E7    -4.001823762174963E1  -2.643532317075405E1  -1.078559309809697E-1  -4.104884391707829E1  -1.144763622932520E-1  -4.103859821168770E1  -4.006127990036902E1  -2.517550065179654E1  
 1.325000000000000E7    -4.000014672013666E1  -2.612394275849802E1  -1.068803574754395E-1  -4.183710235226335E1  -1.102500456431451E-1  -4.181301560320085E1  -4.062140147278215E1  -3.058323652366035E1  
 1.350000000000000E7    -4.003732571716913E1  -3.054407504102382E1  -1.080044905890579E-1  -4.261454730421910E1  -1.126970805311839E-1  -4.260566464977095E1  -4.017250859269049E1  -2.975418737691037E1  
 1.375000000000000E7    -4.016033692537447E1  -3.284417596939513E1  -1.106749546078096E-1  -4.338503028869795E1  -1.154231664050506E-1  -4.337417088808856E1  -4.056323900833864E1  -3.346527082811033E1  
 1.400000000000000E7    -3.942301875183209E1  -3.342869045856425E1  -1.091574215114185E-1  -4.418947027554376E1  -1.181975841010167E-1  -4.416036444314504E1  -4.072399884967980E1  -3.241326040105528E1  
 1.425000000000000E7    -3.960219448915070E1  -3.617779393716214E1  -1.098654633241910E-1  -4.497335545784026E1  -1.215243455949458E-1  -4.495484301708440E1  -4.015812196774632E1  -3.425912339021726E1  
 1.450000000000000E7    -3.910546698706801E1  -3.609000806945314E1  -1.114227355916058E-1  -4.574035066007198E1  -1.188797842653988E-1  -4.573428308452464E1  -3.958084680520440E1  -3.356046624076164E1  
 1.475000000000000E7    -3.968151695433901E1  -3.523339817306744E1  -1.130536577626255E-1  -4.652238194659100E1  -1.171888880133850E-1  -4.651626841639171E1  -4.036801736052306E1  -3.386012575974619E1  
 1.500000000000000E7    -3.917400133726197E1  -3.569348282853285E1  -1.120130914351286E-1  -4.730348113764280E1  -1.177301199106597E-1  -4.730925141171822E1  -3.993025338166639E1  -3.594524721562073E1  
 1.525000000000000E7    -3.965745948203734E1  -3.910535081218171E1  -1.121739470003472E-1  -4.806540328780483E1  -1.169037641811360E-1  -4.806473625744025E1  -3.960695269469208E1  -3.974071104461732E1  
 1.550000000000000E7    -3.943922851321587E1  -3.393548880302060E1  -1.115410133730174E-1  -4.884875715565807E1  -1.171189472968012E-1  -4.885820273669141E1  -4.003511204739625E1  -3.823173881715076E1  
 1.575000000000000E7    -3.973999218317508E1  -3.398532991426993E1  -1.134928101727881E-1  -4.964425211958193E1  -1.180876230533495E-1  -4.963385811490900E1  -4.010716619662389E1  -3.694959283689173E1  
 1.600000000000000E7    -3.935506051169798E1  -4.163795969806375E1  -1.137837140503587E-1  -5.042043096928401E1  -1.160165775364705E-1  -5.043408597969419E1  -3.939710258394403E1  -4.003798610652989E1  
 1.625000000000000E7    -3.908077100744763E1  -4.058160547323300E1  -1.129506041145431E-1  -5.121468238675908E1  -1.205617400352338E-1  -5.120470863193896E1  -3.962275929515488E1  -4.054981348347661E1  
 1.650000000000000E7    -3.926309450341552E1  -4.460934825307052E1  -1.123507016078229E-1  -5.198307246508421E1  -1.171059270431597E-1  -5.198283200993546E1  -3.988644848463075E1  -4.060981788168758E1  
 1.675000000000000E7    -3.936476751039990E1  -4.571536547770648E1  -1.140644167676857E-1  -5.278143486764311E1  -1.163627213975847E-1  -5.276104876212028E1  -3.982190622817096E1  -4.452231913579267E1  
 1.700000000000000E7    -3.916418394389600E1  -4.384143663948983E1  -1.101928686287986E-1  -5.355641822786438E1  -1.173563264362816E-1  -5.354694928997648E1  -4.040765179302710E1  -4.099301226115038E1  
 1.725000000000000E7    -3.951528692953904E1  -4.664218303694804E1  -1.143256035912924E-1  -5.434916414048415E1  -1.172248490503865E-1  -5.432244295459535E1  -3.987710452151420E1  -4.298681661920060E1  
 1.750000000000000E7    -3.925945282250530E1  -4.565963273106104E1  -1.137113158275306E-1  -5.512830109396261E1  -1.143448572383883E-1  -5.510405616522099E1  -3.969985167572320E1  -4.461071577102402E1  
 1.775000000000000E7    -3.962370645968429E1  -4.678468270148696E1  -1.161680456168157E-1  -5.591836159174433E1  -1.169536821564331E-1  -5.587972003085682E1  -4.055007018199910E1  -4.369224907570926E1  
 1.800000000000000E7    -3.944273271008399E1  -4.466668038746316E1  -1.143032517277166E-1  -5.667134570491996E1  -1.185399859849825E-1  -5.667791512509976E1  -3.942598634001173E1  -4.412686551416999E1  
 1.825000000000000E7    -3.987266541633350E1  -4.733887491508445E1  -1.183813238878493E-1  -5.747991908719190E1  -1.188646478046965E-1  -5.746159206360784E1  -3.997142374175481E1  -5.038416021375306E1  
 1.850000000000000E7    -3.927277983242239E1  -4.771598366766042E1  -1.196640741800047E-1  -5.824539534758059E1  -1.163511639189331E-1  -5.825528301495019E1  -4.022758979291756E1  -4.935433932012430E1  
 1.875000000000000E7    -3.928858084125606E1  -4.828476647470531E1  -1.164527083937194E-1  -5.901612851387048E1  -1.180915707614701E-1  -5.903127893928881E1  -4.036864292843161E1  -5.100038997497996E1  
 1.900000000000000E7    -3.986272030097518E1  -5.476414330564993E1  -1.175831211942526E-1  -5.980247911219048E1  -1.204970770040536E-1  -5.979327184765197E1  -3.962296041194000E1  -5.142376488194859E1  
 1.925000000000000E7    -4.036346665553204E1  -5.083404561496950E1  -1.196205088314695E-1  -6.060390299995019E1  -1.178311052886415E-1  -6.057597663597618E1  -4.015865852800962E1  -4.936033458083815E1  
 1.950000000000000E7    -3.962365031351711E1  -5.174290109526918E1  -1.187348027079248E-1  -6.136520499594110E1  -1.254357791199336E-1  -6.135591329284990E1  -3.991700693307228E1  -5.890712440240627E1  
 1.975000000000000E7    -3.972710966997160E1  -5.203417957919737E1  -1.206726856823096E-1  -6.215131667304020E1  -1.269481482841932E-1  -6.213802472921221E1  -4.010341984459941E1  -5.268506876451409E1  
 2.000000000000000E7    -4.016053661108858E1  -5.275338029618445E1  -1.203173670592343E-1  -6.293331713942771E1  -1.251994829419113E-1  -6.291926768803344E1  -4.024297653419028E1  -5.582283008209222E1  
 2.025000000000000E7    -3.904771058176129E1  -5.564904628805694E1  -1.197018344825024E-1  -6.373828934025717E1  -1.240196544000101E-1  -6.371503859730317E1  -4.069078088177627E1  -5.578727616212400E1  
 2.050000000000000E7    -3.950871208870272E1  -5.708454450740315E1  -1.192237689605662E-1  -6.449777160931438E1  -1.237799178644952E-1  -6.449608724523870E1  -4.002177459530996E1  -5.240605462954542E1  
 2.075000000000000E7    -3.959952783202449E1  -5.457087045082383E1  -1.192466580801716E-1  -6.527546523851198E1  -1.223514308159953E-1  -6.527752754293003E1  -4.048135163427094E1  -5.785081116443338E1  
 2.100000000000000E7    -3.948911937516102E1  -5.694994432451728E1  -1.178294241425311E-1  -6.609380542380220E1  -1.273918089243359E-1  -6.606213178518202E1  -3.959120890347115E1  -6.020570030949898E1  
 2.125000000000000E7    -4.016066969426682E1  -5.882130366827079E1  -1.207614695524891E-1  -6.685955496241903E1  -1.226839700988700E-1  -6.685591622170207E1  -4.095143592636938E1  -5.964990951408647E1  
 2.150000000000000E7    -3.981806362186990E1  -5.924211022680186E1  -1.197401660232434E-1  -6.765180273117156E1  -1.216683390123758E-1  -6.762816125813248E1  -3.986824591356780E1  -6.032896029802581E1  
 2.175000000000000E7    -3.931791078834998E1  -5.873352381249365E1  -1.211277754217212E-1  -6.842701185588355E1  -1.264260105763901E-1  -6.840559370631912E1  -3.992591506056340E1  -5.800529031868820E1  
 2.200000000000000E7    -3.937881522317055E1  -6.549887736233819E1  -1.226469710771138E-1  -6.921465876893731E1  -1.231982019599609E-1  -6.919019617946842E1  -4.105446406386889E1  -5.802568242893126E1  
 2.225000000000000E7    -3.981206456129738E1  -6.080517927529930E1  -1.215615668060854E-1  -6.997859374229698E1  -1.231568985983595E-1  -6.998823501776583E1  -3.985513945696340E1  -6.184059662269378E1  
 2.250000000000000E7    -3.945100880765288E1  -5.979330764786876E1  -1.216970234776109E-1  -7.078568674550266E1  -1.247660366202369E-1  -7.075210049836564E1  -3.998897294328297E1  -6.011799125366063E1  
 2.275000000000000E7    -3.961376309773530E1  -6.173857093880395E1  -1.218051666300428E-1  -7.154557580244860E1  -1.281600201735919E-1  -7.156664366575046E1  -4.083575521763152E1  -6.129813891640607E1  
 2.300000000000000E7    -4.004055614054634E1  -6.338568419830713E1  -1.202451657336954E-1  -7.234892036778197E1  -1.259704766390240E-1  -7.231399507660214E1  -4.047057214864120E1  -6.507156701902279E1  
 2.325000000000000E7    -3.914521822054977E1  -6.485793461816526E1  -1.222198524846527E-1  -7.311584675770564E1  -1.298833721244969E-1  -7.310718738692104E1  -4.109854141867579E1  -6.200540530945153E1  
 2.350000000000000E7    -3.920800682741082E1  -6.428565056271492E1  -1.251827411947940E-1  -7.392710344549431E1  -1.243840847398617E-1  -7.389493634397984E1  -4.079295590926132E1  -6.235094108363107E1  
 2.375000000000000E7    -3.999011761346625E1  -6.460846674548010E1  -1.269028474556791E-1  -7.469691947892055E1  -1.277027117976000E-1  -7.468754017692862E1  -4.117937758383893E1  -5.753597157389275E1  
 2.400000000000000E7    -4.026295299814714E1  -6.362388752365183E1  -1.232719927949132E-1  -7.548898356151926E1  -1.295218392876522E-1  -7.546567655934743E1  -4.027295444192505E1  -6.624867896679177E1  
 2.425000000000000E7    -3.940680986184749E1  -6.344687755711414E1  -1.236733317714103E-1  -7.625577804930327E1  -1.271287479918252E-1  -7.624471553279118E1  -4.039549804273195E1  -6.531936868735747E1  
 2.450000000000000E7    -3.994537879720105E1  -6.572920175859456E1  -1.250562229786837E-1  -7.705896450854151E1  -1.282431995797579E-1  -7.702077183211833E1  -4.109279083299903E1  -6.281458584175303E1  
 2.475000000000000E7    -3.955639644257875E1  -6.674089436833948E1  -1.276291967566414E-1  -7.783477126749715E1  -1.282973118804517E-1  -7.779300172630714E1  -4.118694186839624E1  -6.456208215897460E1  
 2.500000000000000E7    -4.012161312053920E1  -6.429763519742990E1  -1.233689676949566E-1  -7.861586365426498E1  -1.306807328280027E-1  -7.858986621540355E1  -4.112133935695172E1  -7.070859907801342E1  
 2.525000000000000E7    -4.036827625102829E1  -6.560768086120041E1  -1.278343068151423E-1  -7.941311419365090E1  -1.306834289490355E-1  -7.938625159911499E1  -4.094537026289163E1  -6.626258298971916E1  
 2.550000000000000E7    -4.021692149314681E1  -6.977628295224170E1  -1.300298525789459E-1  -8.019078916796912E1  -1.284806920975639E-1  -8.017991143270464E1  -4.077692208350579E1  -6.575089030422562E1  
 2.575000000000000E7    -4.032616908499313E1  -6.624976066458791E1  -1.299450482000971E-1  -8.097311939395434E1  -1.309928221648634E-1  -8.094600160351861E1  -4.099753081597351E1  -6.664820274537412E1  
 2.600000000000000E7    -4.010021959364295E1  -6.742143731166365E1  -1.283634857375985E-1  -8.175053482480885E1  -1.314252862142719E-1  -8.174531569678898E1  -4.075979015439443E1  -6.612491232716336E1  
 2.625000000000000E7    -3.993784500256356E1  -7.201961511028894E1  -1.269583171302151E-1  -8.254057999836911E1  -1.310243034861178E-1  -8.251917661545042E1  -4.111548127704040E1  -6.936443484862623E1  
 2.650000000000000E7    -4.058182489718689E1  -6.974337519994289E1  -1.311136118456315E-1  -8.331586853859332E1  -1.328311234883425E-1  -8.330123322724258E1  -4.069475106008469E1  -6.648972589285454E1  
 2.675000000000000E7    -3.996599224461519E1  -6.735503406383953E1  -1.290864185001523E-1  -8.410003364896532E1  -1.324601115172727E-1  -8.407929235324100E1  -4.166119917749897E1  -6.713024052502961E1  
 2.700000000000000E7    -4.068071079483470E1  -6.963701119262233E1  -1.323638092374499E-1  -8.488326645013268E1  -1.307320618511955E-1  -8.486208350852250E1  -4.218844031748664E1  -7.146360815038803E1  
 2.725000000000000E7    -3.992879666450065E1  -7.166532247464221E1  -1.296221309604757E-1  -8.563897028842057E1  -1.316878252816968E-1  -8.564088760966949E1  -4.088735947584816E1  -6.920235067391295E1  
 2.750000000000000E7    -4.033111687405224E1  -7.105795460555133E1  -1.299986829604226E-1  -8.643323640912786E1  -1.330734327917144E-1  -8.643811362712795E1  -4.104999181020076E1  -6.628312474449477E1  
 2.775000000000000E7    -4.043269213007908E1  -7.290384892155464E1  -1.313498349957420E-1  -8.723025358966017E1  -1.346440101584219E-1  -8.720445158428115E1  -4.116537708442479E1  -6.831908215501269E1  
 2.800000000000000E7    -3.956190405802412E1  -7.462867402895078E1  -1.329878874956586E-1  -8.800916380911181E1  -1.318408361999000E-1  -8.798902952280395E1  -4.147462060576527E1  -6.991446448321238E1  
 2.825000000000000E7    -4.014959444080329E1  -7.620420284640490E1  -1.314594889495291E-1  -8.879516706969966E1  -1.347678739641360E-1  -8.878690269247939E1  -4.132659958932497E1  -6.778759532034169E1  
 2.850000000000000E7    -4.011990321834504E1  -7.455231679500120E1  -1.324214213841713E-1  -8.957597136228134E1  -1.357217725856012E-1  -8.957129729545977E1  -4.127414421600955E1  -6.781694368864839E1  
 2.875000000000000E7    -3.958678963096300E1  -7.495940383786562E1  -1.323806812213866E-1  -9.034869403656907E1  -1.369744369714272E-1  -9.033569271219116E1  -4.118487222655845E1  -6.981331568076216E1  
 2.900000000000000E7    -4.017190087722168E1  -7.489951656586520E1  -1.304703250751917E-1  -9.115252198437663E1  -1.387272415760810E-1  -9.111620023225103E1  -4.148603627629730E1  -7.152886198537388E1  
