#  HZ   S   DB   R     50.00 
! Rohde & Schwarz ZVT8 8Ports - Version 4.11 - 1300.0000k08 SN: 100242
! Date: 2024-03-13 12:59:55
! Measurements: S11 S21 S12 S22 
! 
 1.000000000000000E6    -2.636840685450313E1  -1.306164020413310E2  -1.170078849077367E-1  -4.851118588198534   3.649474509785228E-2  -5.219647515422298  -2.325959070504529E1  -1.471100081514092E2  
 1.295000000000000E6    -2.142025213109624E1  -1.535974891812312E2  -1.031389823532725E-1  -6.337673500908496   1.897777037315468E-2  -6.592103518675962  -2.249836402390920E1  -1.601672148561668E2  
 1.590000000000000E6    -2.082887017510696E1  -1.612784282821349E2  -1.059390055786215E-1  -7.716020708972424   1.263456241378349E-2  -7.950786181077650  -2.171135505107729E1  -1.696888259206587E2  
 1.885000000000000E6    -2.016889445052022E1  -1.667756916450580E2  -1.218615320826142E-1  -9.051116751001482   7.447524312004709E-3  -9.349021460914111  -2.091089189309985E1  -1.766318906234961E2  
 2.180000000000000E6    -1.968404371404028E1  -1.718318182646046E2  -1.286135865858535E-1  -1.038282077141210E1   3.952112761747236E-3  -1.072926311272025E1  -2.050347864894028E1   1.758946144500333E2  
 2.475000000000000E6    -1.958497976501573E1  -1.770638288787620E2  -1.290783181387314E-1  -1.173747476688484E1  -1.066408284540428E-3  -1.204576203541897E1  -2.033079995504134E1   1.684481312048195E2  
 2.770000000000000E6    -1.948695753198317E1   1.787339765696253E2  -1.414672849575430E-1  -1.306911918695580E1  -1.164211381006508E-2  -1.341972299655556E1  -2.014518717223221E1   1.622497862978264E2  
 3.065000000000000E6    -1.945057698763961E1   1.753560498165302E2  -1.454167831743130E-1  -1.446354482146808E1  -2.872154465013149E-2  -1.478997542376211E1  -2.004704115108488E1   1.570570713713127E2  
 3.360000000000000E6    -1.944989895400566E1   1.715997531624643E2  -1.457248487965817E-1  -1.580069526149323E1  -2.429857715775639E-2  -1.607893487514692E1  -2.005635033763591E1   1.511406481060158E2  
 3.655000000000000E6    -1.950046647680360E1   1.685182501281635E2  -1.545414819908617E-1  -1.715156264927916E1  -3.296083492161978E-2  -1.744316690154327E1  -2.011158511876535E1   1.461019284197130E2  
 3.950000000000000E6    -1.955187721110725E1   1.660171286024564E2  -1.628966167557210E-1  -1.845828429419679E1  -4.848963368020585E-2  -1.877740478814342E1  -2.014615197449557E1   1.418568932367559E2  
 4.245000000000000E6    -1.962855765477729E1   1.633249871172340E2  -1.603789856862184E-1  -1.982424727038539E1  -4.434354965304158E-2  -2.008127410604542E1  -2.019772339215345E1   1.373373457184627E2  
 4.540000000000000E6    -1.969042121619503E1   1.611428845101073E2  -1.562601241547470E-1  -2.114998495927105E1  -5.247340645800967E-2  -2.142992307573981E1  -2.027781285947450E1   1.332899255755050E2  
 4.835000000000000E6    -1.980514169844516E1   1.590229382496052E2  -1.605949016938574E-1  -2.249444574289797E1  -5.780538648656964E-2  -2.275660826997970E1  -2.033554640057095E1   1.294568183065311E2  
 5.130000000000000E6    -1.993628279288816E1   1.569028495042130E2  -1.662284276463036E-1  -2.381697564847600E1  -6.761605461837750E-2  -2.409662396309027E1  -2.039809817701924E1   1.257578665156026E2  
 5.425000000000000E6    -2.000035216038647E1   1.550752501237424E2  -1.599543750976931E-1  -2.519083363020354E1  -6.585515551989074E-2  -2.543692125704183E1  -2.046930380736793E1   1.220878033362209E2  
 5.720000000000000E6    -2.011586732228479E1   1.534421247488623E2  -1.689506175561736E-1  -2.652413222007562E1  -7.535422023468184E-2  -2.678567724795895E1  -2.055386287339945E1   1.186321320517257E2  
 6.015000000000000E6    -2.028306141933137E1   1.521217376039175E2  -1.840460788519542E-1  -2.777575096108740E1  -8.753972091227763E-2  -2.808921507829451E1  -2.062919358988702E1   1.151849632852148E2  
 6.310000000000000E6    -2.041741243690865E1   1.504710713156219E2  -1.800787358663128E-1  -2.915161458808295E1  -8.941425662544238E-2  -2.945050791814267E1  -2.069922714998388E1   1.119671794591860E2  
 6.605000000000000E6    -2.050573035376586E1   1.493484396898831E2  -1.790390354901525E-1  -3.048851139491606E1  -8.694238003912243E-2  -3.077256538723892E1  -2.074874515136661E1   1.090296871267534E2  
 6.900000000000000E6    -2.066021385287232E1   1.485818564537534E2  -1.847530600434513E-1  -3.177962314548223E1  -9.987916507219626E-2  -3.210886302299524E1  -2.083006695349035E1   1.058884265335622E2  
 7.195000000000000E6    -2.079649741712381E1   1.475589852158250E2  -1.884959443931202E-1  -3.315175090470338E1  -1.016246445024938E-1  -3.344823282834130E1  -2.089292745568404E1   1.029841472423429E2  
 7.490000000000000E6    -2.086538082874187E1   1.468053757828062E2  -1.907408415581439E-1  -3.448489586966309E1  -1.069863183999697E-1  -3.480926510301362E1  -2.093662593328945E1   1.003028648123589E2  
 7.785000000000000E6    -2.099503933413251E1   1.461902753298409E2  -1.975023434741850E-1  -3.595614271522307E1  -1.371239486816808E-1  -3.595677618359322E1  -2.100535502450618E1   9.770096424663201E1  
 8.080000000000000E6    -2.106907559813643E1   1.457124274829523E2  -1.926740877000534E-1  -3.712246262120954E1  -1.126741187543881E-1  -3.742391379303221E1  -2.104901408982005E1   9.499110508101977E1  
 8.375000000000000E6    -2.115481130695789E1   1.450778448604210E2  -2.029595650390016E-1  -3.850868596836893E1  -1.224850992676451E-1  -3.877327169524295E1  -2.111569648508790E1   9.263192003712382E1  
 8.670000000000000E6    -2.122967766361846E1   1.449248216307375E2  -2.050344010589454E-1  -3.980874709394444E1  -1.255954356570185E-1  -4.009426898623791E1  -2.114876765309089E1   9.023037360182946E1  
 8.965000000000000E6    -2.125819897701314E1   1.447942858472313E2  -2.068594981781950E-1  -4.108610013267722E1  -1.292791088001314E-1  -4.139611644962470E1  -2.115118278044618E1   8.785960267778597E1  
 9.260000000000000E6    -2.130271495789326E1   1.441457808020587E2  -2.165100805500402E-1  -4.244501032966701E1  -1.342794031109298E-1  -4.275032113774180E1  -2.119343740090486E1   8.563847015225272E1  
 9.555000000000000E6    -2.131035694697585E1   1.438859855496288E2  -2.176530001915908E-1  -4.378191093708053E1  -1.374641816474330E-1  -4.405017079226901E1  -2.120822764779258E1   8.347320938156560E1  
 9.850000000000000E6    -2.131583958558153E1   1.438459556162888E2  -2.161702952111162E-1  -4.504851857740978E1  -1.445709583909747E-1  -4.537828384279914E1  -2.119225287293707E1   8.122205059265149E1  
 1.014500000000000E7    -2.128728059931388E1   1.433721048972170E2  -2.175794939745011E-1  -4.599993617958430E1  -1.557744546280628E-1  -4.645619975595081E1  -2.120059414321174E1   7.985127721973377E1  
 1.044000000000000E7    -2.129376394628338E1   1.431315659172105E2  -2.409367211850415E-1  -4.909935629948823E1  -1.554895104900936E-1  -4.872033319288656E1  -2.109317922128952E1   7.470678527308019E1  
 1.073500000000000E7    -2.124554058786437E1   1.430048893374637E2  -2.327173214982088E-1  -4.967377348277291E1  -1.550176205808713E-1  -4.961865715404801E1  -2.108823913330684E1   7.401475391585868E1  
 1.103000000000000E7    -2.122505574968796E1   1.427348753266867E2  -2.359764715055199E-1  -5.030128469588032E1  -1.594274938872339E-1  -5.057066598606733E1  -2.109425489462932E1   7.306481733483919E1  
 1.132500000000000E7    -2.118398679492743E1   1.423681000345473E2  -2.459474792283203E-1  -5.161968120604075E1  -1.708043025114910E-1  -5.186368147748853E1  -2.104207335657074E1   7.111791394440559E1  
 1.162000000000000E7    -2.114179300488545E1   1.421811189748440E2  -2.445353004330864E-1  -5.291844485003749E1  -1.695156676376382E-1  -5.317422295991329E1  -2.100126575489641E1   6.903093736951632E1  
 1.191500000000000E7    -2.104123916642036E1   1.417830039882493E2  -2.440455844543559E-1  -5.423728732692637E1  -1.739928243884240E-1  -5.445382793202022E1  -2.093362110871922E1   6.687075797017111E1  
 1.221000000000000E7    -2.100432813407467E1   1.413963543821237E2  -2.566254535194896E-1  -5.550314120762177E1  -1.814488619442324E-1  -5.577030468215286E1  -2.085612279405504E1   6.497662946515656E1  
 1.250500000000000E7    -2.092506851929376E1   1.409279277106398E2  -2.693226687143829E-1  -5.682886453724695E1  -1.977212719128451E-1  -5.707201041241896E1  -2.079096134758745E1   6.288684096401726E1  
 1.280000000000000E7    -2.087134965321843E1   1.402954592473307E2  -2.809403601740115E-1  -5.813744837453351E1  -2.028836551449532E-1  -5.834462756238437E1  -2.071317347860158E1   6.089614060199313E1  
 1.309500000000000E7    -2.078556137436048E1   1.398702271905320E2  -2.800972861235335E-1  -5.940151452198455E1  -2.045913798637576E-1  -5.963389850435925E1  -2.062671046668752E1   5.885572883518901E1  
 1.339000000000000E7    -2.069650863706265E1   1.392564471922490E2  -2.813874344600792E-1  -6.072499696492350E1  -2.065406742398742E-1  -6.093201943076933E1  -2.052122702483629E1   5.651958267358713E1  
 1.368500000000000E7    -2.061126517580546E1   1.388015303276872E2  -2.765428562342744E-1  -6.198904005171887E1  -1.984121764820027E-1  -6.223936007515738E1  -2.041302263328078E1   5.418389632816749E1  
 1.398000000000000E7    -2.050570836682319E1   1.380270096707468E2  -2.687918967381146E-1  -6.335091241384257E1  -1.931123172414993E-1  -6.354621067907873E1  -2.032024252164201E1   5.167556920478010E1  
 1.427500000000000E7    -2.043551252945635E1   1.374932412044005E2  -2.718675529181270E-1  -6.455747152434351E1  -2.001158039189674E-1  -6.478748419657374E1  -2.022544186630760E1   4.951341890895234E1  
 1.457000000000000E7    -2.036011813721630E1   1.366769823896774E2  -2.806899800746752E-1  -6.583641120226118E1  -2.064838504245074E-1  -6.604544360635627E1  -2.012319760142788E1   4.736781225521761E1  
 1.486500000000000E7    -2.027197873812412E1   1.359737610834426E2  -2.863744513096929E-1  -6.711668831138407E1  -2.116517586036967E-1  -6.733011718878551E1  -2.003466770102898E1   4.506685543876154E1  
 1.516000000000000E7    -2.018538394931334E1   1.352213829049725E2  -2.816218025756272E-1  -6.842297825807069E1  -2.162999328039191E-1  -6.863595814552217E1  -1.993846724176709E1   4.268178685437317E1  
 1.545500000000000E7    -2.009217165376047E1   1.341810201682357E2  -2.862972270011635E-1  -6.982557651895469E1  -2.123676810406485E-1  -6.999133870585611E1  -1.983916469531467E1   4.009265010273498E1  
 1.575000000000000E7    -2.002051294494241E1   1.334242314963983E2  -2.788797388119613E-1  -7.107824442582961E1  -2.048186074979047E-1  -7.123970128677053E1  -1.974321577279775E1   3.770255636203521E1  
 1.604500000000000E7    -1.994073123569411E1   1.325357715310292E2  -2.766331784432599E-1  -7.239786496392384E1  -2.025202461693315E-1  -7.260254077536088E1  -1.964391970065813E1   3.506690234878147E1  
 1.634000000000000E7    -1.985587501090399E1   1.317066784062819E2  -2.744785443452736E-1  -7.362566622013198E1  -2.011870036571297E-1  -7.383130162556546E1  -1.954436446493783E1   3.274280742400262E1  
 1.663500000000000E7    -1.977318483317135E1   1.307833370014083E2  -2.760928011804775E-1  -7.490834918688772E1  -2.045037897683691E-1  -7.507735314012429E1  -1.945337679547474E1   3.034300377372233E1  
 1.693000000000000E7    -1.970327564201742E1   1.298215448748067E2  -2.778258812422235E-1  -7.618953431332005E1  -2.043787793934971E-1  -7.636360235997316E1  -1.936816586122935E1   2.779166268991664E1  
 1.722500000000000E7    -1.961289839206172E1   1.288355508957203E2  -2.744724598698496E-1  -7.748071030779953E1  -2.043841514877833E-1  -7.765459720372974E1  -1.928017209279675E1   2.523340166593304E1  
 1.752000000000000E7    -1.953726298744831E1   1.277837093090342E2  -2.732226383441442E-1  -7.883312350974421E1  -2.051660042336114E-1  -7.898521201023323E1  -1.919007749613943E1   2.263799068755582E1  
 1.781500000000000E7    -1.946598996373340E1   1.268229758319167E2  -2.712296933437703E-1  -8.016549747455731E1  -2.010219646487472E-1  -8.030847965115760E1  -1.910797121453396E1   2.009198015028344E1  
 1.811000000000000E7    -1.939982979698498E1   1.257643377345293E2  -2.681625124047521E-1  -8.148149336074303E1  -1.983003599277400E-1  -8.164500090252436E1  -1.904762011053063E1   1.746639433477754E1  
 1.840500000000000E7    -1.933590013867639E1   1.246362849728904E2  -2.648312891955048E-1  -8.275498067269356E1  -1.960615704468849E-1  -8.291552124364546E1  -1.896633126139544E1   1.481171066913745E1  
 1.870000000000000E7    -1.927816902185407E1   1.235818892679353E2  -2.615061946740892E-1  -8.402045309665279E1  -1.930380366775033E-1  -8.417786710440494E1  -1.889420060119326E1   1.234155228356801E1  
 1.899500000000000E7    -1.922321260733685E1   1.223814554829963E2  -2.594794068164463E-1  -8.534550727352132E1  -1.893742501888197E-1  -8.547055669265330E1  -1.882146681813916E1   9.695217586399670  
 1.929000000000000E7    -1.917845936681680E1   1.213335400573142E2  -2.582382371693391E-1  -8.665119238781526E1  -1.892358301328583E-1  -8.678155121998239E1  -1.876001225317140E1   7.015712260595633  
 1.958500000000000E7    -1.912331274472355E1   1.203193166661202E2  -2.570767178957591E-1  -8.798063543465308E1  -1.909839938816497E-1  -8.812629786154729E1  -1.871244086838846E1   4.413823383354151  
 1.988000000000000E7    -1.908424237748325E1   1.191122393302539E2  -2.645177525168674E-1  -8.933484374479112E1  -1.910085557830535E-1  -8.943896701498382E1  -1.865980885771883E1   1.690748418526948  
 2.017500000000000E7    -1.905647086393429E1   1.180776625488459E2  -2.699233184943970E-1  -9.520047686697942E1  -1.859141259362419E-1  -9.357137073764324E1  -1.836667159288223E1   1.576710093616142  
 2.047000000000000E7    -1.899603021156564E1   1.169784981077985E2  -2.601445925806289E-1  -9.574285813836042E1  -1.842035323545438E-1  -9.441602812472421E1  -1.839584462899065E1  -1.365065347532077  
 2.076500000000000E7    -1.896066039415441E1   1.157896726653439E2  -2.603334047561772E-1  -9.628512418937915E1  -1.819272767520087E-1  -9.522211793207045E1  -1.841488076133235E1  -4.419963149485416  
 2.106000000000000E7    -1.891826851977260E1   1.146756491701206E2  -2.598834745769287E-1  -9.683644061712309E1  -1.836971139068993E-1  -9.607128438045034E1  -1.842067587678645E1  -7.589061829221460  
 2.135500000000000E7    -1.887659556808330E1   1.134868428915288E2  -2.579103463419152E-1  -9.739892106473435E1  -1.841418750143932E-1  -9.692487053092054E1  -1.841054661569254E1  -1.068910234648425E1  
 2.165000000000000E7    -1.884044124592393E1   1.122725029197652E2  -2.580442440218654E-1  -9.797941167727852E1  -1.825623940006009E-1  -9.778634084443176E1  -1.839782253429035E1  -1.381634263183049E1  
 2.194500000000000E7    -1.880692746729287E1   1.110834029170238E2  -2.614379042690693E-1  -9.856447453205664E1  -1.817450243842438E-1  -9.865686465170938E1  -1.837675395343179E1  -1.697923207311785E1  
 2.224000000000000E7    -1.878041172884826E1   1.099258832056593E2  -2.543906916144687E-1  -9.972638499796400E1  -1.814801654136239E-1  -9.986180477074815E1  -1.833939649776383E1  -1.975633931719140E1  
 2.253500000000000E7    -1.874473558108963E1   1.087333943332115E2  -2.539694447578443E-1  -1.010253982630864E2  -1.780755246420137E-1  -1.011737310895182E2  -1.830390496145653E1  -2.248441365399009E1  
 2.283000000000000E7    -1.871619665332901E1   1.075354981652346E2  -2.454274904067142E-1  -1.023537705256304E2  -1.753854672792633E-1  -1.024685382402550E2  -1.827303215825284E1  -2.516712484259389E1  
 2.312500000000000E7    -1.870143334484687E1   1.063298667964128E2  -2.460510386991041E-1  -1.036713586603357E2  -1.707496810716263E-1  -1.037798826919779E2  -1.825496948352835E1  -2.788689185822266E1  
 2.342000000000000E7    -1.866571071823260E1   1.051372076753414E2  -2.430893011502266E-1  -1.050130396869271E2  -1.704396879933374E-1  -1.051243850036343E2  -1.823806048647498E1  -3.064723001453669E1  
 2.371500000000000E7    -1.865318575132038E1   1.038650098753988E2  -2.457834438000008E-1  -1.063318847041455E2  -1.735160286505367E-1  -1.064331173009260E2  -1.823442028950333E1  -3.336988145364836E1  
 2.401000000000000E7    -1.863395789430146E1   1.025888787682261E2  -2.463287271221573E-1  -1.076523635382592E2  -1.710853919434901E-1  -1.077722073084908E2  -1.823077108142833E1  -3.613545428462160E1  
 2.430500000000000E7    -1.862255615526113E1   1.014285395717640E2  -2.394163683726743E-1  -1.089669753764184E2  -1.648845014829963E-1  -1.090664221144042E2  -1.821306035000212E1  -3.883541672117015E1  
 2.460000000000000E7    -1.861117731380688E1   1.002078340728239E2  -2.352361273281104E-1  -1.102861854355617E2  -1.615432903173728E-1  -1.103838378729477E2  -1.820192892027769E1  -4.153921185877068E1  
 2.489500000000000E7    -1.859715566898788E1   9.899108105655208E1  -2.367329451116522E-1  -1.116223420039172E2  -1.597857200499000E-1  -1.117047562814885E2  -1.817460440194152E1  -4.434937252172272E1  
 2.519000000000000E7    -1.859305751259992E1   9.776434749142327E1  -2.360807156111384E-1  -1.129428524238516E2  -1.567947665751011E-1  -1.130108093341242E2  -1.819130427295322E1  -4.704778271445788E1  
 2.548500000000000E7    -1.858033220569287E1   9.659738741311230E1  -2.277373650941929E-1  -1.142510401767947E2  -1.569052629550806E-1  -1.143357654106920E2  -1.819589778792126E1  -4.984456920669864E1  
 2.578000000000000E7    -1.857011587354334E1   9.531946842072364E1  -2.345982096878193E-1  -1.155977103458513E2  -1.580173492952322E-1  -1.156618589575372E2  -1.820777465322748E1  -5.269245966535003E1  
 2.607500000000000E7    -1.856886597480824E1   9.411629607762482E1  -2.364665026803351E-1  -1.168949653428114E2  -1.608414342353977E-1  -1.169764684062367E2  -1.821121468493125E1  -5.546101011621005E1  
 2.637000000000000E7    -1.856114413822506E1   9.290960082411675E1  -2.288055127715763E-1  -1.182200607725121E2  -1.523102661082997E-1  -1.182902256636430E2  -1.821998966057316E1  -5.820569775952946E1  
 2.666500000000000E7    -1.855405167130326E1   9.168121594130977E1  -2.210877044716228E-1  -1.195589492935058E2  -1.500871992153806E-1  -1.196337575496679E2  -1.822192227323078E1  -6.097176636206979E1  
 2.696000000000000E7    -1.855823645725591E1   9.039639853546940E1  -2.208449649158296E-1  -1.208890584370194E2  -1.470223667752353E-1  -1.209398077366998E2  -1.823373957595993E1  -6.369041974519362E1  
 2.725500000000000E7    -1.856329560009552E1   8.915362579245540E1  -2.259597561952250E-1  -1.221927122143301E2  -1.458953487083730E-1  -1.222496378239017E2  -1.825462643046870E1  -6.649582659984014E1  
 2.755000000000000E7    -1.855786871193967E1   8.788232336792220E1  -2.217005614748913E-1  -1.235360566617320E2  -1.467677510454298E-1  -1.235900712659174E2  -1.827653632178364E1  -6.932552144640887E1  
 2.784500000000000E7    -1.856039862530394E1   8.663802269967844E1  -2.240475693083210E-1  -1.248729112985105E2  -1.477761865220350E-1  -1.249063670314953E2  -1.830381758017922E1  -7.213260138947371E1  
 2.814000000000000E7    -1.857870940276012E1   8.541687548843322E1  -2.218357931377935E-1  -1.261828764680187E2  -1.429420766852228E-1  -1.262415823823022E2  -1.832796848502916E1  -7.489721040157771E1  
 2.843500000000000E7    -1.856976162515704E1   8.422982527795453E1  -2.210933822749967E-1  -1.275172684395204E2  -1.463954838469288E-1  -1.275544048759375E2  -1.834003737072166E1  -7.773159423249933E1  
 2.873000000000000E7    -1.857286913276661E1   8.301043801793594E1  -2.171078717136149E-1  -1.288594654011743E2  -1.404170986328835E-1  -1.289066341635763E2  -1.836133392423809E1  -8.052851761878003E1  
 2.902500000000000E7    -1.858409905015306E1   8.179063610602532E1  -2.201544406171499E-1  -1.301604320321237E2  -1.392904739129074E-1  -1.302249480833235E2  -1.839248540427579E1  -8.329136075846374E1  
 2.932000000000000E7    -1.858489126903782E1   8.057058159080934E1  -2.154392520220080E-1  -1.315041966854234E2  -1.375240722373603E-1  -1.315413029017286E2  -1.842031462127006E1  -8.610641058996859E1  
