#  HZ   S   DB   R     50.00 
! Rohde & Schwarz ZVT8 8Ports - Version 4.11 - 1300.0000k08 SN: 100242
! Date: 2024-03-13 13:30:27
! Measurements: S11 S12 S13 S21 S22 S23 S31 S32 S33 
! 
 1.000000000000000E6    -2.859705383840735E1  -1.564604102783386E2  -4.642800803113763E-2  -1.291897543957849E1  -8.772131220040157E1   8.211838485503029E1  
                        -1.971103752324740E-1  -1.261018881118401E1  -2.404798912581862E1  -1.647484264633979E2  -8.707734572986981E1   7.637099117672065E1  
                        -8.981675456793131E1   7.440785822170251E1  -8.776690954245689E1   7.653154870495926E1  -5.056659512143494E-3  -9.116044759627638  
                        
 1.295000000000000E6    -2.209172715501532E1  -1.761297460818862E2  -5.654727797465443E-2  -1.652749984389180E1  -8.608396052434830E1   7.489090201209750E1  
                        -1.849491496805079E-1  -1.627126605714872E1  -2.299695615117064E1   1.748828511113563E2  -8.631367360446234E1   7.510372476308638E1  
                        -8.744251598079694E1   6.149274588262283E1  -8.726950389211153E1   7.255748713583688E1  -4.398917435436939E-2  -1.134506144248891E1  
                        
 1.590000000000000E6    -2.128909571251873E1   1.704961121241016E2  -6.586342956327597E-2  -2.009025361325572E1  -8.398307811442821E1   7.036961352557374E1  
                        -1.922768952190818E-1  -1.982713699286886E1  -2.199174520912031E1   1.597107092499942E2  -8.464379618619380E1   7.225856368132757E1  
                        -8.581491430721290E1   6.113484362748302E1  -8.482204144686831E1   7.452354585638024E1  -2.271365345480512E-2  -1.393607110791111E1  
                        
 1.885000000000000E6    -2.053167547024230E1   1.604403995711186E2  -7.689900876743191E-2  -2.369689871837836E1  -8.258111185781688E1   6.955747523227758E1  
                        -2.128287478392092E-1  -2.336086353006223E1  -2.115862386889874E1   1.482986344146679E2  -8.328806376348732E1   6.828838328193693E1  
                        -8.436268223038825E1   6.398142431395543E1  -8.351906321116292E1   6.787384028484831E1  -2.766958898289825E-3  -1.701997219732327E1  
                        
 2.180000000000000E6    -2.002790244650918E1   1.508726414171200E2  -1.017007684871881E-1  -2.726025792229681E1  -8.209889101649642E1   3.839814227295192E1  
                        -2.400466862623985E-1  -2.688332561559674E1  -2.065256307719635E1   1.364465942792864E2  -8.234416765595564E1   4.185953732343344E1  
                        -7.940642307725750E1   7.820325187267088E1  -8.855020624103874E1   8.703812316705543E1  -9.173718062441919E-3  -1.982809621495931E1  
                        
 2.475000000000000E6    -1.976841342896207E1   1.406641496642604E2  -1.175820347228228E-1  -3.083080841203312E1  -7.720729737775925E1   4.239760491615905E1  
                        -2.502815066486616E-1  -3.047610855906727E1  -2.027815605095344E1   1.241872370179838E2  -8.312482469554395E1   5.034251299945484E1  
                        -8.812641434174618E1   9.328120476342997E1  -7.728450349711005E1   8.159176599391307E1  -2.515173768253230E-2  -2.247473577144848E1  
                        
 2.770000000000000E6    -1.953070769315306E1   1.317798991792024E2  -1.393708714314496E-1  -3.445131859697033E1  -7.684367249338789E1   7.595302271695493E1  
                        -2.642463848031237E-1  -3.405537975671906E1  -1.999334473743965E1   1.136742577186238E2  -8.099087317939129E1   8.136004348126268E1  
                        -7.992565212171405E1   5.974684389140737E1  -7.714300692130364E1   7.065084035580870E1  -3.937783748359607E-2  -2.523491641962384E1  
                        
 3.065000000000000E6    -1.944769338267792E1   1.238025215994092E2  -1.612547776845906E-1  -3.804674937327033E1  -7.861335822559997E1   8.337856702250960E1  
                        -2.819146155871626E-1  -3.764722288641408E1  -1.984357444969671E1   1.041702522894926E2  -7.815985162952070E1   4.445736373771909E1  
                        -7.451597453447947E1   7.522103247375141E1  -7.883667739799942E1   3.992470363001361E1  -6.147962760758255E-2  -2.811630469851098E1  
                        
 3.360000000000000E6    -1.931504895277302E1   1.156108530503530E2  -1.761878507999070E-1  -4.159000250185132E1  -7.722373596725035E1   4.647793550178542E1  
                        -2.928954868210943E-1  -4.124656186349664E1  -1.966949086910564E1   9.412578181775534E1  -7.823341042868655E1   7.287786849800229E1  
                        -7.606959424117542E1   6.690914652667431E1  -7.825666951323103E1   5.634348581772979E1  -7.303331120666959E-2  -3.073387120252211E1  
                        
 3.655000000000000E6    -1.928081016979044E1   1.081648327194824E2  -2.009971980727645E-1  -4.508582079273796E1  -7.590243363657612E1   5.986444176648739E1  
                        -3.110941178435364E-1  -4.485638629898322E1  -1.960669691361912E1   8.506294028367607E1  -7.622491431860124E1   4.897125351598323E1  
                        -7.867415820462198E1   5.751221374969272E1  -7.767286453979426E1   6.632089401254794E1  -1.004725364330642E-1  -3.345103028380952E1  
                        
 3.950000000000000E6    -1.927170096338173E1   1.012365233302720E2  -2.159015324474523E-1  -4.883630106686437E1  -7.813538498062290E1   4.975853889339906E1  
                        -3.282019379272534E-1  -4.844332464484496E1  -1.957638482520994E1   7.660485905710966E1  -7.709671826227142E1   5.201333056106392E1  
                        -7.572144250836119E1   4.942159099848787E1  -7.448613108265991E1   5.508911147942263E1  -1.181810160266699E-1  -3.623080436344507E1  
                        
 4.245000000000000E6    -1.926468505235841E1   9.420815126050769E1  -2.313774930125707E-1  -5.244770517649969E1  -7.579824626716865E1   4.212002656127282E1  
                        -3.437743421709022E-1  -5.207289046022665E1  -1.952080980941029E1   6.829002274997426E1  -7.285583714105259E1   5.715535247408558E1  
                        -7.505489097227022E1   6.106371773125801E1  -7.795296239084372E1   5.108563206278292E1  -1.337441248202827E-1  -3.894205461082265E1  
                        
 4.540000000000000E6    -1.928868879282699E1   8.803678404368546E1  -2.484990617878877E-1  -5.605321714495877E1  -7.786828061365186E1   3.290776491349121E1  
                        -3.491438231393075E-1  -5.564559260736950E1  -1.950452936614865E1   6.031832634222531E1  -7.090069492617127E1   3.830323005461038E1  
                        -7.743879716617242E1   4.159110736185397E1  -7.572977980642999E1   5.891710876356191E1  -1.550912318870674E-1  -4.166242293774306E1  
                        
 4.835000000000000E6    -1.931935241173992E1   8.169587226311940E1  -2.692687463131425E-1  -5.966127952943199E1  -7.243849059370555E1   4.845642568089586E1  
                        -3.634488814907604E-1  -5.927261096448069E1  -1.950120621933512E1   5.273124560563866E1  -7.403145031599422E1   5.059554642566566E1  
                        -7.823724097962126E1   2.516803856804454E1  -7.552124587133912E1   4.126962125169198E1  -1.776250968913021E-1  -4.445767780689612E1  
                        
 5.130000000000000E6    -1.932893543927529E1   7.522190059476304E1  -2.849279009569373E-1  -6.331547842132618E1  -7.340532796533177E1   4.014880361451956E1  
                        -3.766970042648839E-1  -6.292023064801281E1  -1.951860236538601E1   4.532496328458368E1  -7.447352515751808E1   5.146400213687203E1  
                        -7.224955807990068E1   4.143561319167157E1  -7.313277390629287E1   6.213903976671013E1  -2.061626735663812E-1  -4.728552678503387E1  
                        
 5.425000000000000E6    -1.938321403534466E1   6.941216063271567E1  -3.021440213340550E-1  -6.694485050084687E1  -7.264750728233427E1   2.863913346879334E1  
                        -3.885718289692250E-1  -6.655818056874789E1  -1.952559620794773E1   3.805200327369902E1  -7.366419520223890E1   5.205635581921647E1  
                        -7.349415304530530E1   5.774522593395326E1  -7.249850322132376E1   4.064576519796400E1  -2.240189673698771E-1  -5.006570593614163E1  
                        
 5.720000000000000E6    -1.945459947340906E1   6.366460108043356E1  -3.238709863699173E-1  -7.056920953909615E1  -7.359277364916402E1   2.780498241221654E1  
                        -4.048265452819541E-1  -7.013420110456157E1  -1.956401803103001E1   3.090831681841795E1  -7.454252840936698E1   3.825780129067379E1  
                        -7.322515610984522E1   3.784113958094288E1  -7.450244999866337E1   4.327708772165067E1  -2.670643007146841E-1  -5.280749758165125E1  
                        
 6.015000000000000E6    -1.953272642468117E1   5.763588224039060E1  -3.546351390277477E-1  -7.420645741372422E1  -7.198436701520637E1   1.730504787584313E1  
                        -4.297608059171905E-1  -7.372376986871095E1  -1.960407383921559E1   2.385081307532314E1  -7.234973609835836E1   2.915870428035183E1  
                        -7.283650958146752E1   3.101707557322525E1  -7.046438553143585E1   3.617033814495078E1  -3.248768545558849E-1  -5.552157982148351E1  
                        
 6.310000000000000E6    -1.960163035303455E1   5.202935027662061E1  -3.646049533067442E-1  -7.782657897518325E1  -7.099828948584218E1   3.198637775622633E1  
                        -4.379203889099282E-1  -7.734782511114764E1  -1.965127921679436E1   1.699474942055503E1  -7.296797563763967E1   3.587879809428226E1  
                        -7.169838372364222E1   3.780711851875576E1  -7.157306235872956E1   3.734403529844893E1  -3.511358953819095E-1  -5.832713076221718E1  
                        
 6.605000000000000E6    -1.968950022214710E1   4.668717578006730E1  -3.857860557370650E-1  -8.147727096133809E1  -7.097141898114849E1   1.275307736492275E1  
                        -4.497794280279724E-1  -8.100501131263593E1  -1.974015438201462E1   1.029494624462940E1  -7.070235668602469E1   4.078651409943424E1  
                        -7.168289722567222E1   2.234558607939821E1  -7.137680894884686E1   1.737751171670366E1  -3.873961651979819E-1  -6.100323974480912E1  
                        
 6.900000000000000E6    -1.980813307025223E1   4.123402488794363E1  -4.127791526743541E-1  -8.499731910636604E1  -7.191221579041218E1   1.331832738900246E1  
                        -4.721298094627288E-1  -8.458112569422347E1  -1.980666869934506E1   3.671069596785440  -7.043422226098114E1   3.594486771705760E1  
                        -7.214161840775839E1   3.490591199005768E1  -7.104968956380134E1   2.791095145927245E1  -4.413824630905118E-1  -6.358231389423121E1  
                        
 7.195000000000000E6    -1.989327251676384E1   3.594168521757809E1  -4.300780028479367E-1  -8.869623422263246E1  -7.109351035362396E1   4.977308083530410  
                        -4.892624163765175E-1  -8.819251539113188E1  -1.990188040921037E1  -2.876698915609172  -7.066278714552711E1   2.292594761170065E1  
                        -7.064546413795311E1   2.330610990905014E1  -7.406335573640769E1   2.944912533563903E1  -4.814230168765483E-1  -6.625905846123649E1  
                        
 7.490000000000000E6    -1.999320337854256E1   3.106342784748079E1  -4.516891940713013E-1  -9.232216776410267E1  -7.062037088056769E1   1.482447394058317E1  
                        -5.015685700300206E-1  -9.181641679652709E1  -2.002582466039686E1  -9.279602613432573  -6.947203262049426E1   1.946320841482242E1  
                        -7.148093234390638E1   2.395022111609552E1  -6.975391673174840E1   1.596556995664904E1  -5.156831303112233E-1  -6.892498154730653E1  
                        
 7.785000000000000E6    -2.001134401936787E1   2.524206685577331E1  -4.731524445167533E-1  -9.416074810982792E1  -7.132208180451477E1   3.929105445434689  
                        -5.484797202640713E-1  -9.516656889880538E1  -2.030530647814779E1  -1.402969865882500E1  -6.981313083272862E1   1.603172137942531E1  
                        -7.083691368413170E1   6.008308345630350  -7.038138824664668E1   3.386044758400755E1  -4.938488999863407E-1  -7.143844155317449E1  
                        
 8.080000000000000E6    -2.019638262794995E1   2.122310432172279E1  -4.951033810006209E-1  -9.947562837431690E1  -6.978987565419106E1   9.081851453876347  
                        -5.358461614247946E-1  -9.893687134801114E1  -2.023833288077159E1  -2.184331510823553E1  -6.788218886919921E1   1.494471873925385E1  
                        -7.002883336009029E1   2.499142425122500E1  -6.820417231302882E1   2.366003331591545E1  -5.806759617396081E-1  -7.394095563219528E1  
                        
 8.375000000000000E6    -2.027681771462778E1   1.655901164713388E1  -5.167504687516149E-1  -1.030583920370861E2  -7.095772537822958E1   7.696180975680520  
                        -5.536264702750089E-1  -1.025516196134762E2  -2.037855955238629E1  -2.808101601762760E1  -6.861664134117528E1   9.632630292395067  
                        -7.162592728421176E1   1.794448980627931E1  -6.929907157196229E1   1.911164831634983E1  -6.104279682575712E-1  -7.655743263425485E1  
                        
 8.670000000000000E6    -2.037407692465598E1   1.195861370227555E1  -5.339296167687095E-1  -1.065880731980559E2  -6.974795091376696E1   6.558232801721480  
                        -5.690844007200904E-1  -1.060750784791588E2  -2.051722162907180E1  -3.413519887856389E1  -6.849897619565799E1   1.106402213291612E1  
                        -6.888974109097180E1  -5.797803260434547  -7.045619213160435E1   1.863507374497019E1  -6.314731139589634E-1  -7.908927848965205E1  
                        
 8.965000000000000E6    -2.045424589418609E1   7.548479682630809  -5.599539429357020E-1  -1.100602545253965E2  -6.913936220247373E1  -7.834877171733440  
                        -5.882303867459238E-1  -1.095631590240416E2  -2.064141036482418E1  -4.004722663057770E1  -6.964343315235149E1   4.889660856351275  
                        -6.877404713963290E1   4.079938632091985  -6.764725271836626E1   1.808884427881070E1  -6.514789276830608E-1  -8.149585802419963E1  
                        
 9.260000000000000E6    -2.051103141567630E1   3.084633351666614  -5.774954656717634E-1  -1.136409330522772E2  -6.749566362046811E1  -5.764811573548175E-3  
                        -6.057488142358246E-1  -1.131231023736466E2  -2.077929225950778E1  -4.620031425298937E1  -6.722295142012760E1  -1.261943746896979  
                        -6.739958143199877E1  -2.287062584518154  -6.835637973498929E1   4.571079107465565  -6.742008860988064E-1  -8.404070920784086E1  
                        
 9.555000000000000E6    -2.056542340923705E1  -1.273129357509324  -5.955887945963728E-1  -1.171662793110363E2  -6.860046897223519E1  -4.024934903236691  
                        -6.259173373680299E-1  -1.166630935014217E2  -2.091882672465003E1  -5.221653004547179E1  -6.704341092096864E1  -1.509668288281186  
                        -6.770052585703988E1   3.473777288735522  -6.712013204916455E1   2.452931124494062E-1  -6.927501215252990E-1  -8.654575626087707E1  
                        
 9.850000000000000E6    -2.062269972586264E1  -5.661764120427277  -6.133237884085137E-1  -1.206142716194357E2  -6.703280429141215E1  -1.555151112470241E1  
                        -6.400398327357212E-1  -1.201457131313525E2  -2.105055099542959E1  -5.826305400869053E1  -6.914326941374935E1  -4.658255666179747  
                        -6.679441958005799E1  -5.738042238758365  -6.733004146408845E1  -8.794101202130470  -7.039144013136006E-1  -8.896518746349483E1  
                        
 1.014500000000000E7    -2.066385463757721E1  -9.831656524336951  -6.327073777434419E-1  -1.238620608370070E2  -6.683221636879692E1  -1.859580567632216E1  
                        -6.512496540789616E-1  -1.232961101510551E2  -2.120579619004444E1  -6.436661179568517E1  -6.823136289082204E1  -3.280267219150233E-1  
                        -6.650324796607595E1  -3.182763317522551  -6.902221549986705E1  -1.314569211168535E1  -7.286515523885622E-1  -9.101599592357009E1  
                        
 1.044000000000000E7    -2.069872819514771E1  -1.443485743180746E1  -6.643464317983679E-1  -1.283499117291362E2  -6.750849392746338E1  -3.123750609580031E1  
                        -6.762845400404186E-1  -1.284507161507469E2  -2.126492676152257E1  -7.033734465247065E1  -6.707517220801663E1  -1.778243690162449E1  
                        -6.847554879506113E1  -1.046871894702739E1  -6.584611146423552E1  -1.425094683440858E1  -7.042170702808670E-1  -9.549069015804039E1  
                        
 1.073500000000000E7    -2.072372249678154E1  -1.886256443671555E1  -6.803656586547662E-1  -1.314305567494861E2  -6.730715107046183E1  -2.330916827503048E1  
                        -6.931508049325572E-1  -1.311914384869660E2  -2.142902424711538E1  -7.669974850583211E1  -6.520483212245958E1  -1.400575376254201E1  
                        -6.684981760091516E1  -1.650743353760614E1  -6.674947210200443E1  -2.275996093440687E1  -7.274373250431704E-1  -9.713589741280761E1  
                        
 1.103000000000000E7    -2.074759026724683E1  -2.324942629493506E1  -6.905918341702727E-1  -1.344391725144184E2  -6.561299360439465E1  -2.236064650900176E1  
                        -7.030361420736130E-1  -1.339930577736570E2  -2.154979843334706E1  -8.316756294681407E1  -6.460032986501594E1  -2.593302073445346E1  
                        -6.595664639446819E1  -1.729073380965317E1  -6.528376023638326E1  -9.800073372006128  -7.468743188281874E-1  -9.883389286346105E1  
                        
 1.132500000000000E7    -2.073975061898734E1  -2.780844899048353E1  -7.178526904099478E-1  -1.378283268585051E2  -6.468394287855023E1  -2.970057386727940E1  
                        -7.178104483622559E-1  -1.374660105331731E2  -2.167220097142490E1  -8.974577716273174E1  -6.750119017139079E1  -2.093929219511191E1  
                        -6.641825655798159E1  -2.725069121616140E1  -6.559734092384473E1  -1.590879590334336E1  -7.670821454685453E-1  -1.013363678946669E2  
                        
 1.162000000000000E7    -2.074061897360745E1  -3.250589378212157E1  -7.241138775086743E-1  -1.412963592922424E2  -6.513857529527820E1  -3.487832822518503E1  
                        -7.321907940040899E-1  -1.408880862377511E2  -2.176635190257982E1  -9.637533631461757E1  -6.457609706458811E1  -2.111692484971856E1  
                        -6.558601195030848E1  -2.458352966329226E1  -6.577622577730929E1  -1.712841406787344E1  -7.660426684154175E-1  -1.037665338501933E2  
                        
 1.191500000000000E7    -2.074046881575130E1  -3.715790751551616E1  -7.345672629688422E-1  -1.446973721033452E2  -6.570214150636889E1  -3.205131127123761E1  
                        -7.375091991096171E-1  -1.443160605881786E2  -2.185585395029709E1  -1.030467781069646E2  -6.558012777332610E1  -2.682483162501780E1  
                        -6.617000210034273E1  -2.951182304843873E1  -6.572150190955549E1  -2.273962971474505E1  -7.606033630073339E-1  -1.061910453587726E2  
                        
 1.221000000000000E7    -2.072913653395031E1  -4.185657401418687E1  -7.528045678472961E-1  -1.481111153134031E2  -6.474989736002972E1  -4.105389755139833E1  
                        -7.599172459062545E-1  -1.477212383489097E2  -2.193680889378626E1  -1.101632009931765E2  -6.564458735326755E1  -3.640801631552676E1  
                        -6.584760024764593E1  -3.762181622673193E1  -6.515570581670086E1  -2.266965000907965E1  -7.690880558702860E-1  -1.086310002891357E2  
                        
 1.250500000000000E7    -2.069809608167203E1  -4.679132377757942E1  -7.678611235055786E-1  -1.515020322771320E2  -6.537202250261490E1  -4.304450984609256E1  
