#  HZ   S   DB   R     50.00 
! Rohde & Schwarz ZVT8 8Ports - Version 4.11 - 1300.0000k08 SN: 100242
! Date: 2024-03-13 13:29:08
! Measurements: S11 S12 S13 S21 S22 S23 S31 S32 S33 
! 
 1.000000000000000E6    -2.858881824822486E1  -1.563942934434218E2  -4.702345571371928E-2  -1.291432101059671E1  -9.273943011868596E1   8.225592102490816E1  
                        -1.977486519358623E-1  -1.259840378485799E1  -2.403908994332938E1  -1.647192575388753E2  -9.556219148542142E1   7.133023534194456E1  
                        -9.505378812647415E1   7.489705458900851E1  -9.725358396029485E1   4.457350478265740E1  -5.805279431382152E-3  -9.110762140661707  
                        
 1.295000000000000E6    -2.208773926833011E1  -1.760864370610633E2  -5.689048630143550E-2  -1.652177845974007E1  -9.319942237152320E1   9.275959537749135E1  
                        -1.847766188590357E-1  -1.626020819683477E1  -2.299018397058334E1   1.749206494006356E2  -9.305754241943197E1   6.658815607363839E1  
                        -9.818047589702019E1   8.481651471699898E1  -9.268607521861755E1   8.093866839698892E1  -4.558976244497111E-2  -1.133923781788614E1  
                        
 1.590000000000000E6    -2.128751811051172E1   1.705508744685373E2  -6.648487522131732E-2  -2.008491552428169E1  -9.297490971755428E1   7.307876913755828E1  
                        -1.918398229649573E-1  -1.981753936264521E1  -2.198777842345942E1   1.597653618233051E2  -9.024142218295191E1   7.917049491640822E1  
                        -8.945104372617514E1   6.535066759179111E1  -9.170600255387842E1   7.056719800054351E1  -2.404679028828020E-2  -1.392698912335106E1  
                        
 1.885000000000000E6    -2.053168928770907E1   1.605074752127898E2  -7.727974854466459E-2  -2.368879165138658E1  -8.935509957198114E1   7.371870251719759E1  
                        -2.127446083065158E-1  -2.334947145787069E1  -2.115380783232632E1   1.483595718631161E2  -9.093177137746162E1   7.228478527202780E1  
                        -9.019335351716411E1   8.102523855671446E1  -9.065493478370574E1   7.200799971973942E1  -4.107514739478283E-3  -1.700812065924865E1  
                        
 2.180000000000000E6    -2.002947822162282E1   1.509913973046347E2  -1.007016751716977E-1  -2.725704892735452E1  -8.201289245788711E1   1.027396156983381E2  
                        -2.375697909961417E-1  -2.686080301816572E1  -2.065118842296513E1   1.365528741484163E2  -8.517271541693529E1   1.392917349675710E2  
                        -8.609048819879024E1   1.538731440853002E1  -8.869990431696263E1   4.073307328742612E1  -9.046524860774287E-3  -1.979515195490533E1  
                        
 2.475000000000000E6    -1.976304362544283E1   1.408063699961149E2  -1.191085864437008E-1  -3.079067272584849E1  -7.983610779480729E1   8.124177432636493E1  
                        -2.484316058657748E-1  -3.046475960817717E1  -2.027626411587609E1   1.242587626812901E2  -8.632931861875656E1  -1.273946070218489E2  
                        -8.472532640025328E1   7.830857449869761E1  -8.345598730876736E1   4.322528170524632E1  -2.221715986684071E-2  -2.246790548609803E1  
                        
 2.770000000000000E6    -1.954169672821054E1   1.318795925158368E2  -1.344599722730590E-1  -3.440764488330665E1  -8.755650690435738E1   9.283777331970681E1  
                        -2.640817446409088E-1  -3.404595217844082E1  -1.998070677119197E1   1.137896800854327E2  -8.898693865812896E1   9.278627241107407E1  
                        -8.260368958218159E1   1.163569213847569E2  -9.514282395536134E1  -1.626434024844196E2  -4.038992128843312E-2  -2.522199482155781E1  
                        
 3.065000000000000E6    -1.945885547857965E1   1.239159250127259E2  -1.621150007998058E-1  -3.804580449629471E1  -8.081501205935227E1   7.787147333732322E1  
                        -2.817365947482339E-1  -3.762742898831707E1  -1.984476662934310E1   1.042024450268427E2  -8.415510386305635E1   6.336779441091856E1  
                        -8.639918234614888E1   7.180420398362251E1  -8.443319368054532E1   1.016374057924008E2  -6.356394473771915E-2  -2.810346584282544E1  
                        
 3.360000000000000E6    -1.931596088429766E1   1.157106775471191E2  -1.726213751590090E-1  -4.156455783162669E1  -8.775647165132058E1   6.607593059910158E1  
                        -2.922833936520746E-1  -4.123090848371245E1  -1.965793840212125E1   9.421148004319043E1  -8.680301043188032E1   8.756277817481143E1  
                        -8.001599308083345E1   4.554313688582352E1  -9.319253788550303E1  -5.004714050667422E1  -7.553987397449766E-2  -3.070969587368116E1  
                        
 3.655000000000000E6    -1.928187525244898E1   1.082634767498007E2  -1.935749301896905E-1  -4.529208980453417E1  -8.384942684164049E1   2.174215572192302E1  
                        -3.093758176503106E-1  -4.485436023085670E1  -1.957811916229437E1   8.486743246678225E1  -8.654100503504525E1   2.423425819583463E1  
                        -8.383139538223497E1   2.055363793156408E1  -8.235711653562603E1   6.112861417991106E1  -1.000178502599357E-1  -3.341871748445538E1  
                        
 3.950000000000000E6    -1.927503976343971E1   1.012867773822693E2  -2.167133010537515E-1  -4.882105969802345E1  -7.940441478238542E1   3.363627441522706E1  
                        -3.270725446939334E-1  -4.843904305226592E1  -1.957782566556904E1   7.665310768862449E1  -8.983164012347440E1   8.941606791875756E1  
                        -8.237972222689977E1   8.327260994190002E1  -7.766850900963311E1   7.245570862549428E1  -1.203376748930191E-1  -3.620405425718874E1  
                        
 4.245000000000000E6    -1.927114672454216E1   9.422914356606098E1  -2.304908347566115E-1  -5.244853869932604E1  -8.659484017469472E1   7.772366679273462E1  
                        -3.438949327967919E-1  -5.207857649835128E1  -1.951814766712268E1   6.830304841899692E1  -7.897215814564797E1   6.238180211763234E1  
                        -8.866901621234706E1   9.788973271214266E1  -8.180996278591360E1   6.650603424136203E1  -1.351949065476870E-1  -3.893936660804872E1  
                        
 4.540000000000000E6    -1.929935177180797E1   8.808443639380332E1  -2.467644125663645E-1  -5.604091002692969E1  -8.112429466832749E1   4.873321211099879E1  
                        -3.503228007563091E-1  -5.564901930346037E1  -1.950812346749548E1   6.048396149941692E1  -7.907791018449082E1   1.986382740404424E1  
                        -8.174672285044761E1   7.921569491943272E1  -8.104255018834320E1   5.880135978052326E1  -1.547129623106986E-1  -4.161849029686077E1  
                        
 4.835000000000000E6    -1.932380322835326E1   8.179938785845376E1  -2.683538109289602E-1  -5.966972693797266E1  -7.954928461370777E1   2.596181568288095E1  
                        -3.604992877454010E-1  -5.925871093496988E1  -1.950850273908609E1   5.280405830979380E1  -7.974043853741600E1   4.540935139749685E1  
                        -8.525256029811142E1   8.030575493472990E1  -7.968288122601005E1   3.379525447239388E1  -1.790656149968708E-1  -4.445867009834614E1  
                        
 5.130000000000000E6    -1.934055516609489E1   7.524158686208287E1  -2.900713616607504E-1  -6.332507834197016E1  -8.398655383544441E1   9.392464244821142E1  
                        -3.797438146995359E-1  -6.291689716516100E1  -1.952190573014193E1   4.539596481070930E1  -8.684587425707228E1   1.703113687861990E-1  
                        -8.221678892532975E1   6.501776029159434E1  -8.069941324344474E1   4.857476909227142E1  -2.083428580916638E-1  -4.726575541928168E1  
                        
 5.425000000000000E6    -1.938941329654370E1   6.949673122247248E1  -3.019563306337190E-1  -6.693996471191362E1  -7.998164265248114E1   6.822734279526611E1  
                        -3.861876896793777E-1  -6.654290368288933E1  -1.952767087788100E1   3.808693797777014E1  -8.068690916828166E1   4.894443189927596E1  
                        -7.958635034085775E1   4.534596900663322E1  -8.234327082349748E1   4.035312622800574E1  -2.237028869428976E-1  -5.002607220914987E1  
                        
 5.720000000000000E6    -1.946596446409343E1   6.369341784387179E1  -3.220469499373956E-1  -7.058231470677097E1  -8.016962459483949E1   4.786231080752756E1  
                        -4.036369497994706E-1  -7.014039494284722E1  -1.957253827897723E1   3.093262979971380E1  -7.983126129180388E1   3.988696172876384E1  
                        -7.859350887404898E1   3.481700349545571E1  -7.890193810901512E1   2.911512255177619E1  -2.681475140544920E-1  -5.277896321632129E1  
                        
 6.015000000000000E6    -1.954347994721113E1   5.771489483790046E1  -3.529131250892657E-1  -7.419137303367255E1  -8.120765895292517E1   8.623268769979569E1  
                        -4.293904118160615E-1  -7.370687101673342E1  -1.961086319685144E1   2.393758127101052E1  -8.009650917916831E1   7.113657366606407E1  
                        -8.085535158783503E1   5.750174783261382E1  -7.993404988392322E1   7.562812500885524  -3.261323216677270E-1  -5.548908857848282E1  
                        
 6.310000000000000E6    -1.959342567519204E1   5.204218668669791E1  -3.673351118494270E-1  -7.785382937343772E1  -8.071810923222071E1   6.920601520111357E1  
                        -4.371065961054734E-1  -7.738292261015226E1  -1.965910826192589E1   1.704484019249480E1  -7.857458535810095E1   1.249762924969434E1  
                        -7.828428615425742E1  -4.727642818768388  -7.654426952380958E1   3.888072218471777E1  -3.504885234349300E-1  -5.828455388211495E1  
                        
 6.605000000000000E6    -1.969977182998907E1   4.674878202409940E1  -3.852168025394876E-1  -8.150148536663818E1  -7.743230175851048E1   3.283983254918562E1  
                        -4.496355822709869E-1  -8.100228395050124E1  -1.974053267832247E1   1.036346876049528E1  -7.371647304190982E1   3.578109885472806E1  
                        -8.495376640834370E1   4.996979628751939E1  -7.895290678137110E1   2.436969261990710  -3.866408795358061E-1  -6.098195006942556E1  
                        
 6.900000000000000E6    -1.982095548750412E1   4.126261739365994E1  -3.967204557396895E-1  -8.509488333575131E1  -7.955988362012765E1   2.935585345622395E1  
                        -4.724650729572241E-1  -8.456364866972180E1  -1.979971409676114E1   3.684222592260056  -7.528989233716933E1   1.485468703901286E1  
                        -7.475714754161686E1   3.133297291049005E1  -8.125480146205557E1   1.026205183976039E1  -4.420865947607829E-1  -6.355748601907672E1  
                        
 7.195000000000000E6    -1.989662592572868E1   3.594165414498065E1  -4.353461493754137E-1  -8.870409524446207E1  -7.684857056349121E1   1.772250787906152E1  
                        -4.884383986660710E-1  -8.819609509905442E1  -1.991154955758203E1  -2.822861110391163  -7.675395336124846E1   1.739927055107697E1  
                        -7.707492828351663E1   3.144240118996303E1  -8.088905628747000E1   2.207138753915456E1  -4.829632490759565E-1  -6.622772021946048E1  
                        
 7.490000000000000E6    -2.000040536448127E1   3.101732642052400E1  -4.485329072870716E-1  -9.232135871445867E1  -7.820678822401750E1   4.009182868725731E1  
                        -5.035760531704702E-1  -9.180866837660987E1  -2.002572675372552E1  -9.217073351956655  -7.687092041297582E1   2.625455329328857  
                        -7.956845228835029E1   3.046143337268268E1  -7.619598619481579E1   4.778160651638179E-1  -5.157413133897799E-1  -6.890772256353795E1  
                        
 7.785000000000000E6    -1.995583002910760E1   2.582890038618018E1  -5.301833411183309E-1  -9.611071275076850E1  -7.607518698352622E1   4.935708266811984E1  
                        -6.105768500702605E-1  -9.625051818849877E1  -2.031157502600994E1  -1.718813417069573E1  -7.361915032639584E1   1.696569021336716E1  
                        -7.402491615372723E1   2.754837616286820E1  -7.679915933722222E1   1.811543473811986E1  -5.758608874016814E-1  -7.211675012951729E1  
                        
 8.080000000000000E6    -2.020655470170155E1   2.126975071036346E1  -4.945188461628320E-1  -9.947270694009522E1  -7.749301976999745E1   1.634514330704716E1  
                        -5.346375490033500E-1  -9.892499454998831E1  -2.023919133895256E1  -2.177782714817417E1  -8.351450170100631E1   6.752395038882623  
                        -7.709441485104934E1   1.878749340722425E1  -7.388308042465083E1  -1.194397111435002  -5.814231423051961E-1  -7.391199562098510E1  
                        
 8.375000000000000E6    -2.029026938185343E1   1.655245810058505E1  -5.167826522274115E-1  -1.030670826706056E2  -7.553456099970920E1   1.893348140076931E1  
                        -5.525905884265165E-1  -1.025368159159905E2  -2.037774965017735E1  -2.800615423018837E1  -7.576724520148480E1  -1.845961495735419  
                        -7.424593288445156E1   2.136552973466886E1  -7.668666892617362E1   1.596495084071284E1  -6.094978644503379E-1  -7.654167037890588E1  
                        
 8.670000000000000E6    -2.037605037834001E1   1.197473400795002E1  -5.334668478999269E-1  -1.065856766777435E2  -7.513647191381942E1   2.008136325070409E1  
                        -5.707501316310992E-1  -1.060809873827779E2  -2.051278619652582E1  -3.406908470410959E1  -7.704041562868665E1  -2.057356003060156E1  
                        -7.507055866571280E1   3.230901468500379E1  -7.772235146727694E1  -7.868186590095019  -6.308098657028547E-1  -7.906072163542076E1  
                        
 8.965000000000000E6    -2.045592404881137E1   7.541817057090412  -5.500340334674095E-1  -1.100382361686223E2  -7.816073332945831E1  -3.928407995785122  
                        -5.810024981501107E-1  -1.095547368490789E2  -2.063382601553995E1  -3.998211930873957E1  -7.527005819359542E1  -1.959977446077033E1  
                        -7.823190349183531E1   2.031416127224529E1  -7.162957787974628E1   2.181737568677383  -6.526854179928930E-1  -8.146824534731407E1  
                        
 9.260000000000000E6    -2.051724775813149E1   3.093585058613069  -5.792332235713266E-1  -1.136390413179366E2  -7.639179631757563E1   2.698080638716280  
                        -6.054912172973316E-1  -1.131305490651495E2  -2.078362622372346E1  -4.616944709945509E1  -7.458780419985611E1  -1.673109675648183E1  
                        -7.513447751246508E1  -1.351377594609105E1  -7.222820607653608E1  -5.789751727314942  -6.733760035878162E-1  -8.401271491834399E1  
                        
 9.555000000000000E6    -2.057762176514453E1  -1.285864537317557  -5.999375965948197E-1  -1.171401054457528E2  -7.442717716082824E1   4.005003089525873E-3  
                        -6.244566923194409E-1  -1.166601755098791E2  -2.092254550736104E1  -5.225715602475507E1  -7.180904729510431E1  -1.896924438363162E1  
                        -7.323283208161840E1   1.467224281447938E1  -7.434013113867884E1  -1.760578817910673E1  -6.909910635886855E-1  -8.649628288896572E1  
                        
 9.850000000000000E6    -2.063837005870689E1  -5.641935204912632  -6.148808016142130E-1  -1.206220835492788E2  -7.595744891677192E1  -2.466422885155108  
                        -6.408696129146769E-1  -1.201251020920854E2  -2.104553883911774E1  -5.824346006400133E1  -7.385770071330039E1  -2.009574525833745E1  
                        -7.348667574638590E1   4.007802552703943  -7.357660816935892E1  -1.234360607572010E1  -7.058821307502701E-1  -8.894064576179018E1  
                        
 1.014500000000000E7    -2.066826158714580E1  -9.950032465766215  -6.417716093623461E-1  -1.239713059808166E2  -7.193408458638851E1  -4.399545665077856E-1  
                        -6.615950418032757E-1  -1.232081795993986E2  -2.119414271767372E1  -6.436073350856736E1  -7.552223933333649E1  -1.788209271154909E1  
                        -7.219498918372851E1   5.275441768793892  -7.410185719577108E1  -2.991751736584096E1  -7.260352371025181E-1  -9.100671240393569E1  
                        
 1.044000000000000E7    -2.068428001515097E1  -1.447209959249458E1  -6.473623663768089E-1  -1.284421316645565E2  -7.312239216884409E1  -6.849036576179716  
                        -6.958919741268469E-1  -1.285816950578166E2  -2.129316567069425E1  -7.022971854585957E1  -7.345042889506280E1  -1.180336310071470E1  
                        -7.395468820481520E1  -6.170703644419168  -7.535366272454675E1  -2.380328154197914E1  -6.987394674922447E-1  -9.547952322284630E1  
                        
 1.073500000000000E7    -2.071876445991465E1  -1.886500582342230E1  -6.664481676168663E-1  -1.313788315794681E2  -7.336256934427843E1  -1.004224986205782E1  
                        -6.994266406660876E-1  -1.312640278915030E2  -2.144535824924470E1  -7.664057737812544E1  -7.311898294486085E1  -2.651473994476292E1  
                        -7.243819445377356E1  -7.638732128479539  -7.589140074796896E1  -1.622684904933394E1  -7.253223546907535E-1  -9.710448808371581E1  
                        
 1.103000000000000E7    -2.074031696268295E1  -2.328632671246681E1  -6.875634990334757E-1  -1.344194919929582E2  -7.461711425057808E1  -2.346685836262084E1  
                        -7.014588814461318E-1  -1.339897503626775E2  -2.155073517060999E1  -8.310501577004661E1  -7.325392078932084E1  -5.363180041722434E1  
                        -7.270362925244187E1  -2.246334640298545E1  -7.152582817973142E1  -3.239982802829810E1  -7.467615183508880E-1  -9.879988896499062E1  
                        
 1.132500000000000E7    -2.074063805676798E1  -2.781297423169289E1  -7.074593288237961E-1  -1.377848009948562E2  -7.153797583638830E1  -1.394002919534146E1  
                        -7.206030633409336E-1  -1.374552752269447E2  -2.167344475130640E1  -8.972691987068073E1  -7.184336161610101E1  -4.650984742687606E1  
                        -7.268673843624588E1  -3.009494029066163  -7.568596938086108E1  -3.239272274128192E1  -7.698389538693494E-1  -1.012894402395714E2  
                        
 1.162000000000000E7    -2.075250600267955E1  -3.250960272343660E1  -7.248367691739996E-1  -1.412844837738402E2  -7.286391928295456E1  -1.146926421658922E1  
                        -7.328200441398856E-1  -1.408671620386283E2  -2.176602102028687E1  -9.633083218661771E1  -7.220490889335886E1  -4.378692874596327E1  
                        -7.185456199983699E1  -1.427296894244081E1  -7.096288725548199E1  -3.445021020382120E1  -7.659947066736655E-1  -1.037394128570030E2  
                        
 1.191500000000000E7    -2.074310266453753E1  -3.714433159925127E1  -7.332374228902115E-1  -1.446842539492034E2  -7.133570398865156E1  -3.312436204258199E1  
                        -7.374469864055240E-1  -1.443230741223998E2  -2.185006410374340E1  -1.030316388499665E2  -7.239652124395181E1  -5.012972156283328E1  
                        -7.209861505079208E1  -3.113958400405977E1  -7.289836876828817E1  -4.856020128781508E1  -7.598872620828848E-1  -1.061395152226001E2  
                        
 1.221000000000000E7    -2.072888245611740E1  -4.186021186376590E1  -7.512650582555718E-1  -1.480959538127492E2  -7.361459782682134E1  -2.113548973763987E1  
                        -7.546970469883009E-1  -1.477135590198199E2  -2.194646967452929E1  -1.101337667442380E2  -7.273547723254214E1  -5.674857735913228E1  
                        -7.097489546022943E1  -2.605699575613555E1  -7.130126537369320E1  -5.460389636391751E1  -7.689389339514661E-1  -1.085878650326370E2  
                        
 1.250500000000000E7    -2.069856432551370E1  -4.682658520555665E1  -7.717473214734728E-1  -1.514952379368369E2  -7.048062505805612E1  -2.346663904138238E1  
